(0000000142.743601) vcan0 0F5#7D07D4FFD7F800D0
(0000000142.743825) vcan0 0FB#00F07D00
(0000000142.748621) vcan0 0F6#FF640030000FFC00
(0000000142.748848) vcan0 10D#737007FC0000
(0000000142.753604) vcan0 0F5#7D0811FFD7F800D0
(0000000142.753830) vcan0 0FB#00F07D00
(0000000142.758608) vcan0 0F6#FF640030000FFC00
(0000000142.758849) vcan0 10D#DA8007FC0000
(0000000142.763593) vcan0 0F5#7D0957FFD7F800D0
(0000000142.763825) vcan0 0FB#00F07D00
(0000000142.768598) vcan0 0F6#FF640030000FFC00
(0000000142.768847) vcan0 10D#639007FC0000
(0000000142.773599) vcan0 0F5#7D0A9DFFD7F800D0
(0000000142.773822) vcan0 0FB#00F07D00
(0000000142.778599) vcan0 0F6#FF640030000FFC00
(0000000142.778857) vcan0 10D#B5A007FC0000
(0000000142.783619) vcan0 0F5#7D0BDBFFD7F800D0
(0000000142.783823) vcan0 0FB#00F07D00
(0000000142.788604) vcan0 0F6#FF640030000FFC00
(0000000142.788850) vcan0 10D#0CB007FC0000
(0000000142.793607) vcan0 0F5#7D0C31FFD7F800C8
(0000000142.793845) vcan0 0FB#00F07D00
(0000000142.798600) vcan0 0F6#FF640030000FFC00
(0000000142.798857) vcan0 10D#04C007FC0000
(0000000142.803600) vcan0 0F5#7D0D52FFD7F800D0
(0000000142.803822) vcan0 0FB#00F07D00
(0000000142.808608) vcan0 0F6#FF640030000FFC00
(0000000142.808849) vcan0 10D#BDD007FC0000
(0000000142.813595) vcan0 0F5#7D0E98FFD7F800D0
(0000000142.813823) vcan0 0FB#00F07D00
(0000000142.818606) vcan0 0F6#FF640030000FFC00
(0000000142.818886) vcan0 37E#410400C001D388FF
(0000000142.819090) vcan0 10D#6BE007FC0000
(0000000142.823597) vcan0 0F5#7D0FDEFFD7F800D0
(0000000142.823812) vcan0 0FB#01187D00
(0000000142.828612) vcan0 0F6#FF640030000FFC00
(0000000142.828856) vcan0 10D#D2F007FC0000
(0000000142.833604) vcan0 0F5#7D001BFFD7F800D0
(0000000142.833827) vcan0 0FB#01187D00
(0000000142.834091) vcan0 383#9800FF0000140000
(0000000142.834389) vcan0 466#14112F255D9F6657
(0000000142.838600) vcan0 0F6#FF640030000FFC00
(0000000142.838858) vcan0 10D#7B0007FC0000
(0000000142.843623) vcan0 0F5#7D015DFFD7F800D0
(0000000142.843813) vcan0 0FB#01187D00
(0000000142.848610) vcan0 0F6#FF640030000FFC00
(0000000142.848851) vcan0 10D#C21007FC0000
(0000000142.853595) vcan0 0F5#7D02B2FFD7F800C8
(0000000142.853809) vcan0 0FB#01187D00
(0000000142.858598) vcan0 0F6#FF640030000FFC00
(0000000142.858846) vcan0 10D#142007FC0000
(0000000142.863610) vcan0 0F5#7D039BFFD7F800E0
(0000000142.863837) vcan0 0FB#01187D00
(0000000142.868601) vcan0 0F6#FF640030000FFC00
(0000000142.868843) vcan0 10D#AD3007FC0000
(0000000142.873604) vcan0 0F5#7D041EFFD7F800D0
(0000000142.873817) vcan0 0FB#01187D00
(0000000142.878603) vcan0 0F6#FF640030000FFC00
(0000000142.878851) vcan0 10D#A54007FC0000
(0000000142.883599) vcan0 0F5#7D057DFFD7F800C8
(0000000142.883810) vcan0 0FB#01187D00
(0000000142.888598) vcan0 0F6#FF640030000FFC00
(0000000142.888851) vcan0 10D#1C5007FC0000
(0000000142.893596) vcan0 0F5#7D0692FFD7F800D0
(0000000142.893813) vcan0 0FB#01187D00
(0000000142.898598) vcan0 0F6#FF640030000FFC00
(0000000142.898853) vcan0 10D#CA6007FC0000
(0000000142.903599) vcan0 0F5#7D07F1FFD7F800C8
(0000000142.903810) vcan0 0FB#01187D00
(0000000142.908613) vcan0 0F6#FF640030000FFC00
(0000000142.908860) vcan0 10D#737007FC0000
(0000000142.913597) vcan0 0F5#7D0811FFD7F800D0
(0000000142.913810) vcan0 0FB#01187D00
(0000000142.918597) vcan0 0F6#FF640030000FFC00
(0000000142.918884) vcan0 37E#410400C001D388FF
(0000000142.919092) vcan0 10D#DA8007FC0000
(0000000142.923611) vcan0 0F5#7D0957FFD7F800D0
(0000000142.923816) vcan0 0FB#01187D00
(0000000142.928617) vcan0 0F6#FF640030000FFC00
(0000000142.928856) vcan0 10D#639007FC0000
(0000000142.933614) vcan0 0F5#7D0A9DFFD7F800D0
(0000000142.933813) vcan0 0FB#01187D00
(0000000142.934087) vcan0 383#9800FF0000140000
(0000000142.934379) vcan0 466#1450F8DEC8AC4AEE
(0000000142.938598) vcan0 0F6#FF640030000FFC00
(0000000142.938856) vcan0 10D#B5A007FC0000
(0000000142.943595) vcan0 0F5#7D0BFEFFD7F800C8
(0000000142.943821) vcan0 0FB#01187D00
(0000000142.948600) vcan0 0F6#FF640030000FFC00
(0000000142.948856) vcan0 10D#0CB007FC0000
(0000000142.953593) vcan0 0F5#7D0C14FFD7F800D0
(0000000142.953815) vcan0 0FB#01187D00
(0000000142.958617) vcan0 0F6#FF640030000FFC00
(0000000142.958873) vcan0 10D#04C007FC0000
(0000000142.963591) vcan0 0F5#7D0D52FFD7F800D0
(0000000142.963809) vcan0 0FB#01187D00
(0000000142.968601) vcan0 0F6#FF640030000FFC00
(0000000142.968846) vcan0 10D#BDD007FC0000
(0000000142.973589) vcan0 0F5#7D0E98FFD7F800D0
(0000000142.973808) vcan0 0FB#01187D00
(0000000142.978601) vcan0 0F6#FF640030000FFC00
(0000000142.978847) vcan0 10D#6BE007FC0000
(0000000142.983596) vcan0 0F5#7D0FDEFFD7F800D0
(0000000142.983827) vcan0 0FB#01187D00
(0000000142.988599) vcan0 0F6#FF640030000FFC00
(0000000142.988847) vcan0 10D#D2F007FC0000
(0000000142.993596) vcan0 0F5#7D001BFFD7F800D0
(0000000142.993808) vcan0 0FB#01187D00
(0000000142.998602) vcan0 0F6#FF640030000FFC00
(0000000142.998841) vcan0 10D#7B0007FC0000
(0000000143.003595) vcan0 0F5#7D0178FFD7F800C8
(0000000143.003805) vcan0 0FB#01187D00
(0000000143.008593) vcan0 0F6#FF640030000FFC00
(0000000143.008853) vcan0 10D#C21007FC0000
(0000000143.013593) vcan0 0F5#7D0297FFD7F800D0
(0000000143.013806) vcan0 0FB#01187D00
(0000000143.018604) vcan0 0F6#FF640030000FFC00
(0000000143.018877) vcan0 37E#410400C001D388FF
(0000000143.019087) vcan0 10D#142007FC0000
(0000000143.023593) vcan0 0F5#7D03D1FFD7F800D0
(0000000143.023825) vcan0 0FB#00F07D00
(0000000143.028594) vcan0 0F6#FF640030000FFC00
(0000000143.028834) vcan0 10D#AD3007FC0000
(0000000143.033603) vcan0 0F5#7D041EFFD7F800D0
(0000000143.033835) vcan0 0FB#00F07D00
(0000000143.034088) vcan0 383#9800FF0000140000
(0000000143.034383) vcan0 466#148FC29834B92E86
(0000000143.038606) vcan0 0F6#FF640030000FFC00
(0000000143.038844) vcan0 10D#A54007FC0000
(0000000143.043592) vcan0 0F5#7D0558FFD7F800D0
(0000000143.043823) vcan0 0FB#00F07D00
(0000000143.048597) vcan0 0F6#FF640030000FFC00
(0000000143.048839) vcan0 10D#1C5007FC0000
(0000000143.053613) vcan0 0F5#7D06B7FFD7F800C8
(0000000143.053810) vcan0 0FB#00F07D00
(0000000143.058602) vcan0 0F6#FF640030000FFC00
(0000000143.058847) vcan0 10D#CA6007FC0000
(0000000143.063599) vcan0 0F5#7D07D4FFD7F800D0
(0000000143.063809) vcan0 0FB#00F07D00
(0000000143.068592) vcan0 0F6#FF640030000FFC00
(0000000143.068838) vcan0 10D#737007FC0000
(0000000143.073582) vcan0 0F5#7D085BFFD7F800E0
(0000000143.073813) vcan0 0FB#00F07D00
(0000000143.078589) vcan0 0F6#FF640030000FFC00
(0000000143.078845) vcan0 10D#DA8007FC0000
(0000000143.083602) vcan0 0F5#7D0957FFD7F800D0
(0000000143.083812) vcan0 0FB#00F07D00
(0000000143.088608) vcan0 0F6#FF640030000FFC00
(0000000143.088829) vcan0 10D#639007FC0000
(0000000143.093590) vcan0 0F5#7D0AB8FFD7F800C8
(0000000143.093807) vcan0 0FB#00F07D00
(0000000143.098595) vcan0 0F6#FF640030000FFC00
(0000000143.098840) vcan0 10D#B5A007FC0000
(0000000143.103586) vcan0 0F5#7D0BDBFFD7F800D0
(0000000143.103810) vcan0 0FB#00F07D00
(0000000143.108588) vcan0 0F6#FF640030000FFC00
(0000000143.108842) vcan0 10D#0CB007FC0000
(0000000143.113581) vcan0 0F5#7D0C14FFD7F800D0
(0000000143.113816) vcan0 0FB#00F07D00
(0000000143.118594) vcan0 0F6#FF640030000FFC00
(0000000143.118874) vcan0 37E#410400C001C988FF
(0000000143.119073) vcan0 10D#04C007FC0000
(0000000143.123586) vcan0 0F5#7D0D52FFD7F800D0
(0000000143.123808) vcan0 0FB#01187D00
(0000000143.128586) vcan0 0F6#FF640030000FFC00
(0000000143.128840) vcan0 10D#BDD007FC0000
(0000000143.133593) vcan0 0F5#7D0E98FFD7F800D0
(0000000143.133803) vcan0 0FB#01187D00
(0000000143.134104) vcan0 383#9800FF0000140000
(0000000143.134368) vcan0 466#14CE8C529FC6121E
(0000000143.138594) vcan0 0F6#FF640030000FFC00
(0000000143.138843) vcan0 10D#6BE007FC0000
(0000000143.143589) vcan0 0F5#7D0FDEFFD7F800D0
(0000000143.143802) vcan0 0FB#01187D00
(0000000143.143954) vcan0 384#00
(0000000143.148611) vcan0 0F6#FF640030000FFC00
(0000000143.148849) vcan0 10D#D2F007FC0000
(0000000143.153594) vcan0 0F5#7D001BFFD7F800D0
(0000000143.153804) vcan0 0FB#01187D00
(0000000143.158591) vcan0 0F6#FF640030000FFC00
(0000000143.158833) vcan0 10D#7B0007FC0000
(0000000143.163582) vcan0 0F5#7D015DFFD7F800D0
(0000000143.163804) vcan0 0FB#01187D00
(0000000143.168588) vcan0 0F6#FF640030000FFC00
(0000000143.168842) vcan0 10D#C21007FC0000
(0000000143.173581) vcan0 0F5#7D02B2FFD7F800C8
(0000000143.173811) vcan0 0FB#01187D00
(0000000143.178594) vcan0 0F6#FF640030000FFC00
(0000000143.178839) vcan0 10D#142007FC0000
(0000000143.183585) vcan0 0F5#7D03D1FFD7F800D0
(0000000143.183803) vcan0 0FB#01187D00
(0000000143.188584) vcan0 0F6#FF640030000FFC00
(0000000143.188833) vcan0 10D#AD3007FC0000
(0000000143.193603) vcan0 0F5#7D041EFFD7F800D0
(0000000143.193801) vcan0 0FB#01187D00
(0000000143.198605) vcan0 0F6#FF640030000FFC00
(0000000143.198835) vcan0 10D#A54007FC0000
(0000000143.203587) vcan0 0F5#7D057DFFD7F800C8
(0000000143.203799) vcan0 0FB#01187D00
(0000000143.208581) vcan0 0F6#FF640030000FFC00
(0000000143.208828) vcan0 10D#1C5007FC0000
(0000000143.213595) vcan0 0F5#7D0692FFD7F800D0
(0000000143.213799) vcan0 0FB#01187D00
(0000000143.218594) vcan0 0F6#FF640030000FFC00
(0000000143.218871) vcan0 37E#410400C001D388FF
(0000000143.219078) vcan0 10D#CA6007FC0000
(0000000143.223589) vcan0 0F5#7D07D4FFD7F800D0
(0000000143.223804) vcan0 0FB#00F07D00
(0000000143.228582) vcan0 0F6#FF640030000FFC00
(0000000143.228835) vcan0 10D#737007FC0000
(0000000143.233588) vcan0 0F5#7D0811FFD7F800D0
(0000000143.233801) vcan0 0FB#00F07D00
(0000000143.234072) vcan0 383#9800FF0000140000
(0000000143.234367) vcan0 466#140E560C0BD3F5B5
(0000000143.238593) vcan0 0F6#FF640030000FFC00
(0000000143.238839) vcan0 10D#DA8007FC0000
(0000000143.243609) vcan0 0F5#7D0972FFD7F800C8
(0000000143.243819) vcan0 0FB#00F07D00
(0000000143.248602) vcan0 0F6#FF640030000FFC00
(0000000143.248835) vcan0 10D#639007FC0000
(0000000143.253586) vcan0 0F5#7D0A9DFFD7F800D0
(0000000143.253817) vcan0 0FB#00F07D00
(0000000143.258595) vcan0 0F6#FF640030000FFC00
(0000000143.258839) vcan0 10D#B5A007FC0000
(0000000143.263585) vcan0 0F5#7D0BDBFFD7F800D0
(0000000143.263803) vcan0 0FB#00F07D00
(0000000143.268592) vcan0 0F6#FF640030000FFC00
(0000000143.268840) vcan0 10D#0CB007FC0000
(0000000143.273587) vcan0 0F5#7D0C14FFD7F800D0
(0000000143.273803) vcan0 0FB#00F07D00
(0000000143.278595) vcan0 0F6#FF640030000FFC00
(0000000143.278843) vcan0 10D#04C007FC0000
(0000000143.283590) vcan0 0F5#7D0D52FFD7F800D0
(0000000143.283808) vcan0 0FB#00F07D00
(0000000143.288594) vcan0 0F6#FF640030000FFC00
(0000000143.288839) vcan0 10D#BDD007FC0000
(0000000143.293588) vcan0 0F5#7D0EBDFFD7F800C8
(0000000143.293816) vcan0 0FB#00F07D00
(0000000143.298616) vcan0 0F6#FF640030000FFC00
(0000000143.298839) vcan0 10D#6BE007FC0000
(0000000143.303603) vcan0 0F5#7D0FDEFFD7F800D0
(0000000143.303811) vcan0 0FB#00F07D00
(0000000143.308590) vcan0 0F6#FF640030000FFC00
(0000000143.308840) vcan0 10D#D2F007FC0000
(0000000143.313589) vcan0 0F5#7D0051FFD7F800E0
(0000000143.313810) vcan0 0FB#00F07D00
(0000000143.318594) vcan0 0F6#FF640030000FFC00
(0000000143.318879) vcan0 37E#410400C001C988FF
(0000000143.319076) vcan0 10D#7B0007FC0000
(0000000143.323601) vcan0 0F5#7D015DFFD7F800D0
(0000000143.323814) vcan0 0FB#00F07D00
(0000000143.328599) vcan0 0F6#FF640030000FFC00
(0000000143.328840) vcan0 10D#C21007FC0000
(0000000143.333594) vcan0 0F5#7D0297FFD7F800D0
(0000000143.333811) vcan0 0FB#00F07D00
(0000000143.334089) vcan0 383#9800FF0000140000
(0000000143.334374) vcan0 466#144D20C576E0D94D
(0000000143.338605) vcan0 0F6#FF640030000FFC00
(0000000143.338839) vcan0 10D#142007FC0000
(0000000143.343586) vcan0 0F5#7D03D1FFD7F800D0
(0000000143.343802) vcan0 0FB#00F07D00
(0000000143.348583) vcan0 0F6#FF640030000FFC00
(0000000143.348826) vcan0 10D#AD3007FC0000
(0000000143.353579) vcan0 0F5#7D043BFFD7F800C8
(0000000143.353803) vcan0 0FB#00F07D00
(0000000143.358582) vcan0 0F6#FF640030000FFC00
(0000000143.358825) vcan0 10D#A54007FC0000
(0000000143.363586) vcan0 0F5#7D057DFFD7F800C8
(0000000143.363805) vcan0 0FB#00F07D00
(0000000143.368581) vcan0 0F6#FF640030000FFC00
(0000000143.368824) vcan0 10D#1C5007FC0000
(0000000143.373598) vcan0 0F5#7D06D8FFD7F800E0
(0000000143.373807) vcan0 0FB#00F07D00
(0000000143.378589) vcan0 0F6#FF640030000FFC00
(0000000143.378834) vcan0 10D#CA6007FC0000
(0000000143.383579) vcan0 0F5#7D07D4FFD7F800D0
(0000000143.383802) vcan0 0FB#00F07D00
(0000000143.388580) vcan0 0F6#FF640030000FFC00
(0000000143.388824) vcan0 10D#737007FC0000
(0000000143.393576) vcan0 0F5#7D0811FFD7F800D0
(0000000143.393801) vcan0 0FB#00F07D00
(0000000143.398583) vcan0 0F6#FF640030000FFC00
(0000000143.398831) vcan0 10D#DA8007FC0000
(0000000143.403585) vcan0 0F5#7D0957FFD7F800D0
(0000000143.403803) vcan0 0FB#00F07D00
(0000000143.408594) vcan0 0F6#FF640030000FFC00
(0000000143.408826) vcan0 10D#639007FC0000
(0000000143.413581) vcan0 0F5#7D0A9DFFD7F800D0
(0000000143.413798) vcan0 0FB#00F07D00
(0000000143.418591) vcan0 0F6#FF640030000FFC00
(0000000143.418862) vcan0 37E#410400C001D388FF
(0000000143.419070) vcan0 10D#B5A007FC0000
(0000000143.423581) vcan0 0F5#7D0BDBFFD7F800D0
(0000000143.423800) vcan0 0FB#00F07D00
(0000000143.428583) vcan0 0F6#FF640030000FFC00
(0000000143.428827) vcan0 10D#0CB007FC0000
(0000000143.433597) vcan0 0F5#7D0C14FFD7F800D0
(0000000143.433813) vcan0 0FB#00F07D00
(0000000143.434087) vcan0 383#9800FF0000140000
(0000000143.434365) vcan0 466#148CE97FE1EDBDE4
(0000000143.438599) vcan0 0F6#FF640030000FFC00
(0000000143.438829) vcan0 10D#04C007FC0000
(0000000143.443577) vcan0 0F5#7D0D52FFD7F800D0
(0000000143.443799) vcan0 0FB#00F07D00
(0000000143.448580) vcan0 0F6#FF640030000FFC00
(0000000143.448832) vcan0 10D#BDD007FC0000
(0000000143.453573) vcan0 0F5#7D0EBDFFD7F800C8
(0000000143.453800) vcan0 0FB#00F07D00
(0000000143.458601) vcan0 0F6#FF640030000FFC00
(0000000143.458825) vcan0 10D#6BE007FC0000
(0000000143.463613) vcan0 0F5#7D0FDEFFD7F800D0
(0000000143.463796) vcan0 0FB#00F07D00
(0000000143.468617) vcan0 0F6#FF640030000FFC00
(0000000143.468829) vcan0 10D#D2F007FC0000
(0000000143.473620) vcan0 0F5#7D001BFFD7F800D0
(0000000143.473793) vcan0 0FB#00F07D00
(0000000143.478615) vcan0 0F6#FF640030000FFC00
(0000000143.478822) vcan0 10D#7B0007FC0000
(0000000143.483610) vcan0 0F5#7D015DFFD7F800D0
(0000000143.483809) vcan0 0FB#00F07D00
(0000000143.488617) vcan0 0F6#FF640030000FFC00
(0000000143.488851) vcan0 10D#C21007FC0000
(0000000143.493610) vcan0 0F5#7D0297FFD7F800D0
(0000000143.493801) vcan0 0FB#00F07D00
(0000000143.498596) vcan0 0F6#FF640030000FFC00
(0000000143.498824) vcan0 10D#142007FC0000
(0000000143.503574) vcan0 0F5#7D03D1FFD7F800D0
(0000000143.503795) vcan0 0FB#00F07D00
(0000000143.508577) vcan0 0F6#FF640030000FFC00
(0000000143.508813) vcan0 10D#AD3007FC0000
(0000000143.513594) vcan0 0F5#7D041EFFD7F800D0
(0000000143.513803) vcan0 0FB#00F07D00
(0000000143.518579) vcan0 0F6#FF640030000FFC00
(0000000143.518861) vcan0 37E#410400C001C988FF
(0000000143.519060) vcan0 10D#A54007FC0000
(0000000143.523574) vcan0 0F5#7D0512FFD7F800E0
(0000000143.523791) vcan0 0FB#01187D00
(0000000143.528582) vcan0 0F6#FF640030000FFC00
(0000000143.528824) vcan0 10D#1C5007FC0000
(0000000143.533576) vcan0 0F5#7D06B7FFD7F800C8
(0000000143.533790) vcan0 0FB#01187D00
(0000000143.534065) vcan0 383#9800FF0000140000
(0000000143.534351) vcan0 466#14CBB3394DFAA17C
(0000000143.538569) vcan0 0F6#FF640030000FFC00
(0000000143.538820) vcan0 10D#CA6007FC0000
(0000000143.543563) vcan0 0F5#7D07F1FFD7F800C8
(0000000143.543782) vcan0 0FB#01187D00
(0000000143.548583) vcan0 0F6#FF640030000FFC00
(0000000143.548815) vcan0 10D#737007FC0000
(0000000143.553573) vcan0 0F5#7D0811FFD7F800D0
(0000000143.553782) vcan0 0FB#01187D00
(0000000143.558569) vcan0 0F6#FF640030000FFC00
(0000000143.558817) vcan0 10D#DA8007FC0000
(0000000143.563584) vcan0 0F5#7D0957FFD7F800D0
(0000000143.563784) vcan0 0FB#01187D00
(0000000143.568583) vcan0 0F6#FF640030000FFC00
(0000000143.568809) vcan0 10D#639007FC0000
(0000000143.573564) vcan0 0F5#7D0A9DFFD7F800D0
(0000000143.573785) vcan0 0FB#01187D00
(0000000143.578564) vcan0 0F6#FF640030000FFC00
(0000000143.578816) vcan0 10D#B5A007FC0000
(0000000143.583557) vcan0 0F5#7D0BDBFFD7F800D0
(0000000143.583782) vcan0 0FB#01187D00
(0000000143.588564) vcan0 0F6#FF640030000FFC00
(0000000143.588813) vcan0 10D#0CB007FC0000
(0000000143.593566) vcan0 0F5#7D0C31FFD7F800C8
(0000000143.593783) vcan0 0FB#01187D00
(0000000143.598572) vcan0 0F6#FF640030000FFC00
(0000000143.598815) vcan0 10D#04C007FC0000
(0000000143.603561) vcan0 0F5#7D0D52FFD7F800D0
(0000000143.603779) vcan0 0FB#01187D00
(0000000143.608566) vcan0 0F6#FF640030000FFC00
(0000000143.608811) vcan0 10D#BDD007FC0000
(0000000143.613559) vcan0 0F5#7D0E98FFD7F800D0
(0000000143.613778) vcan0 0FB#01187D00
(0000000143.618570) vcan0 0F6#FF640030000FFC00
(0000000143.618849) vcan0 37E#410400C001D388FF
(0000000143.619057) vcan0 10D#6BE007FC0000
(0000000143.623562) vcan0 0F5#7D0FFBFFD7F800C8
(0000000143.623780) vcan0 0FB#01187D00
(0000000143.628561) vcan0 0F6#FF640030000FFC00
(0000000143.628821) vcan0 10D#D2F007FC0000
(0000000143.633563) vcan0 0F5#7D003EFFD7F800C8
(0000000143.633782) vcan0 0FB#01187D00
(0000000143.634050) vcan0 383#9800FF0000140000
(0000000143.634345) vcan0 466#140B7DF2B8088514
(0000000143.638592) vcan0 0F6#FF640030000FFC00
(0000000143.638825) vcan0 10D#7B0007FC0000
(0000000143.643602) vcan0 0F5#7D015DFFD7F800D0
(0000000143.643794) vcan0 0FB#01187D00
(0000000143.643935) vcan0 384#00
(0000000143.648595) vcan0 0F6#FF640030000FFC00
(0000000143.648835) vcan0 10D#C21007FC0000
(0000000143.653593) vcan0 0F5#7D0297FFD7F800D0
(0000000143.653794) vcan0 0FB#01187D00
(0000000143.658597) vcan0 0F6#FF640030000FFC00
(0000000143.658830) vcan0 10D#142007FC0000
(0000000143.658929) vcan0 66E#303A
(0000000143.663588) vcan0 0F5#7D03F4FFD7F800C8
(0000000143.663796) vcan0 0FB#01187D00
(0000000143.668584) vcan0 0F6#FF640030000FFC00
(0000000143.668832) vcan0 10D#AD3007FC0000
(0000000143.673602) vcan0 0F5#7D041EFFD7F800D0
(0000000143.673832) vcan0 0FB#01187D00
(0000000143.678597) vcan0 0F6#FF640030000FFC00
(0000000143.678831) vcan0 10D#A54007FC0000
(0000000143.683590) vcan0 0F5#7D0558FFD7F800D0
(0000000143.683792) vcan0 0FB#01187D00
(0000000143.688586) vcan0 0F6#FF640030000FFC00
(0000000143.688824) vcan0 10D#1C5007FC0000
(0000000143.693579) vcan0 0F5#7D0692FFD7F800D0
(0000000143.693792) vcan0 0FB#01187D00
(0000000143.698580) vcan0 0F6#FF640030000FFC00
(0000000143.698831) vcan0 10D#CA6007FC0000
(0000000143.703584) vcan0 0F5#7D079EFFD7F800E0
(0000000143.703796) vcan0 0FB#01187D00
(0000000143.708582) vcan0 0F6#FF640030000FFC00
(0000000143.708821) vcan0 10D#737007FC0000
(0000000143.713574) vcan0 0F5#7D0834FFD7F800C8
(0000000143.713793) vcan0 0FB#01187D00
(0000000143.718583) vcan0 0F6#FF640030000FFC00
(0000000143.718859) vcan0 37E#410400C001C988FF
(0000000143.719067) vcan0 10D#DA8007FC0000
(0000000143.723576) vcan0 0F5#7D0957FFD7F800D0
(0000000143.723793) vcan0 0FB#01187D00
(0000000143.728579) vcan0 0F6#FF640030000FFC00
(0000000143.728822) vcan0 10D#639007FC0000
(0000000143.733566) vcan0 0F5#7D0A9DFFD7F800D0
(0000000143.733788) vcan0 0FB#01187D00
(0000000143.734065) vcan0 383#9800FF0000140000
(0000000143.734362) vcan0 466#144A47AC241569AB
(0000000143.738586) vcan0 0F6#FF640030000FFC00
(0000000143.738817) vcan0 10D#B5A007FC0000
(0000000143.743564) vcan0 0F5#7D0BDBFFD7F800D0
(0000000143.743777) vcan0 0FB#01187D00
(0000000143.748569) vcan0 0F6#FF640030000FFC00
(0000000143.748812) vcan0 10D#0CB007FC0000
(0000000143.753561) vcan0 0F5#7D0C14FFD7F800D0
(0000000143.753785) vcan0 0FB#01187D00
(0000000143.758583) vcan0 0F6#FF640030000FFC00
(0000000143.758820) vcan0 10D#04C007FC0000
(0000000143.763571) vcan0 0F5#7D0D52FFD7F800D0
(0000000143.763780) vcan0 0FB#01187D00
(0000000143.768566) vcan0 0F6#FF640030000FFC00
(0000000143.768813) vcan0 10D#BDD007FC0000
(0000000143.773559) vcan0 0F5#7D0E98FFD7F800D0
(0000000143.773775) vcan0 0FB#01187D00
(0000000143.778567) vcan0 0F6#FF640030000FFC00
(0000000143.778815) vcan0 10D#6BE007FC0000
(0000000143.783559) vcan0 0F5#7D0FDEFFD7F800D0
(0000000143.783779) vcan0 0FB#01187D00
(0000000143.788569) vcan0 0F6#FF640030000FFC00
(0000000143.788816) vcan0 10D#D2F007FC0000
(0000000143.793571) vcan0 0F5#7D0051FFD7F800E0
(0000000143.793779) vcan0 0FB#01187D00
(0000000143.798568) vcan0 0F6#FF640030000FFC00
(0000000143.798816) vcan0 10D#7B0007FC0000
(0000000143.803575) vcan0 0F5#7D015DFFD7F800D0
(0000000143.803792) vcan0 0FB#01187D00
(0000000143.808509) vcan0 0F6#FF640030000FFC00
(0000000143.808731) vcan0 10D#C21007FC0000
(0000000143.813559) vcan0 0F5#7D02B2FFD7F800C8
(0000000143.813776) vcan0 0FB#01187D00
(0000000143.818504) vcan0 0F6#FF640030000FFC00
(0000000143.818757) vcan0 37E#410400C001C988FF
(0000000143.819016) vcan0 10D#142007FC0000
(0000000143.823554) vcan0 0F5#7D03D1FFD7F800D0
(0000000143.823782) vcan0 0FB#00F07D00
(0000000143.828503) vcan0 0F6#FF640030000FFC00
(0000000143.828722) vcan0 10D#AD3007FC0000
(0000000143.833581) vcan0 0F5#7D041EFFD7F800D0
(0000000143.833783) vcan0 0FB#00F07D00
(0000000143.834052) vcan0 383#9800FF0000140000
(0000000143.834341) vcan0 466#148911668F224D43
(0000000143.838518) vcan0 0F6#FF640030000FFC00
(0000000143.838718) vcan0 10D#A54007FC0000
(0000000143.843559) vcan0 0F5#7D0558FFD7F800D0
(0000000143.843782) vcan0 0FB#00F07D00
(0000000143.848500) vcan0 0F6#FF640030000FFC00
(0000000143.848717) vcan0 10D#1C5007FC0000
(0000000143.853553) vcan0 0F5#7D06D8FFD7F800E0
(0000000143.853781) vcan0 0FB#00F07D00
(0000000143.858501) vcan0 0F6#FF640030000FFC00
(0000000143.858725) vcan0 10D#CA6007FC0000
(0000000143.863514) vcan0 0F5#7D07F1FFD7F800C8
(0000000143.863714) vcan0 0FB#00F07D00
(0000000143.868510) vcan0 0F6#FF640030000FFC00
(0000000143.868723) vcan0 10D#737007FC0000
(0000000143.873494) vcan0 0F5#7D0811FFD7F800D0
(0000000143.873686) vcan0 0FB#00F07D00
(0000000143.878501) vcan0 0F6#FF640030000FFC00
(0000000143.878725) vcan0 10D#DA8007FC0000
(0000000143.883485) vcan0 0F5#7D0957FFD7F800D0
(0000000143.883695) vcan0 0FB#00F07D00
(0000000143.888490) vcan0 0F6#FF640030000FFC00
(0000000143.888716) vcan0 10D#639007FC0000
(0000000143.893483) vcan0 0F5#7D0AB8FFD7F800C8
(0000000143.893687) vcan0 0FB#00F07D00
(0000000143.898499) vcan0 0F6#FF640030000FFC00
(0000000143.898724) vcan0 10D#B5A007FC0000
(0000000143.903490) vcan0 0F5#7D0BDBFFD7F800D0
(0000000143.903690) vcan0 0FB#00F07D00
(0000000143.908497) vcan0 0F6#FF640030000FFC00
(0000000143.908722) vcan0 10D#0CB007FC0000
(0000000143.913497) vcan0 0F5#7D0C5EFFD7F800E0
(0000000143.913684) vcan0 0FB#00F07D00
(0000000143.918502) vcan0 0F6#FF640030000FFC00
(0000000143.918757) vcan0 37E#410400C001C988FF
(0000000143.919014) vcan0 10D#04C007FC0000
(0000000143.923484) vcan0 0F5#7D0D52FFD7F800D0
(0000000143.923684) vcan0 0FB#01187D00
(0000000143.928517) vcan0 0F6#FF640030000FFC00
(0000000143.928720) vcan0 10D#BDD007FC0000
(0000000143.933489) vcan0 0F5#7D0E98FFD7F800D0
(0000000143.933684) vcan0 0FB#01187D00
(0000000143.933992) vcan0 383#9800FF0000140000
(0000000143.934239) vcan0 466#14C8DA20FA2F31DA
(0000000143.938496) vcan0 0F6#FF640030000FFC00
(0000000143.938722) vcan0 10D#6BE007FC0000
(0000000143.943500) vcan0 0F5#7D0F94FFD7F800E0
(0000000143.943702) vcan0 0FB#01187D00
(0000000143.948506) vcan0 0F6#FF640030000FFC00
(0000000143.948731) vcan0 10D#D2F007FC0000
(0000000143.953494) vcan0 0F5#7D001BFFD7F800D0
(0000000143.953713) vcan0 0FB#01187D00
(0000000143.958501) vcan0 0F6#FF640030000FFC00
(0000000143.958724) vcan0 10D#7B0007FC0000
(0000000143.963522) vcan0 0F5#7D015DFFD7F800D0
(0000000143.963685) vcan0 0FB#01187D00
(0000000143.968519) vcan0 0F6#FF640030000FFC00
(0000000143.968733) vcan0 10D#C21007FC0000
(0000000143.973503) vcan0 0F5#7D0297FFD7F800D0
(0000000143.973702) vcan0 0FB#01187D00
(0000000143.978506) vcan0 0F6#FF640030000FFC00
(0000000143.978727) vcan0 10D#142007FC0000
(0000000143.983501) vcan0 0F5#7D03F4FFD7F800C8
(0000000143.983686) vcan0 0FB#01187D00
(0000000143.988507) vcan0 0F6#FF640030000FFC00
(0000000143.988718) vcan0 10D#AD3007FC0000
(0000000143.993499) vcan0 0F5#7D041EFFD7F800D0
(0000000143.993695) vcan0 0FB#01187D00
(0000000143.998503) vcan0 0F6#FF640030000FFC00
(0000000143.998730) vcan0 10D#A54007FC0000
(0000000144.003492) vcan0 0F5#7D0558FFD7F800D0
(0000000144.003688) vcan0 0FB#01187D00
(0000000144.008511) vcan0 0F6#FF640030000FFC00
(0000000144.008719) vcan0 10D#1C5007FC0000
(0000000144.013495) vcan0 0F5#7D0692FFD7F800D0
(0000000144.013685) vcan0 0FB#01187D00
(0000000144.018500) vcan0 0F6#FF640030000FFC00
(0000000144.018761) vcan0 37E#410400C001D388FF
(0000000144.019023) vcan0 10D#CA6007FC0000
(0000000144.023502) vcan0 0F5#7D07F1FFD7F800C8
(0000000144.023696) vcan0 0FB#00F07D00
(0000000144.028510) vcan0 0F6#FF640030000FFC00
(0000000144.028724) vcan0 10D#737007FC0000
(0000000144.033493) vcan0 0F5#7D0811FFD7F800D0
(0000000144.033694) vcan0 0FB#00F07D00
(0000000144.034001) vcan0 383#9800FF0000140000
(0000000144.034241) vcan0 466#1408A4D9663C1572
(0000000144.038502) vcan0 0F6#FF640030000FFC00
(0000000144.038732) vcan0 10D#DA8007FC0000
(0000000144.043475) vcan0 0F5#7D0957FFD7F800D0
(0000000144.043688) vcan0 0FB#00F07D00
(0000000144.048486) vcan0 0F6#FF640030000FFC00
(0000000144.048713) vcan0 10D#639007FC0000
(0000000144.053476) vcan0 0F5#7D0A9DFFD7F800D0
(0000000144.053681) vcan0 0FB#00F07D00
(0000000144.058488) vcan0 0F6#FF640030000FFC00
(0000000144.058721) vcan0 10D#B5A007FC0000
(0000000144.063475) vcan0 0F5#7D0B91FFD7F800E0
(0000000144.063688) vcan0 0FB#00F07D00
(0000000144.068481) vcan0 0F6#FF640030000FFC00
(0000000144.068720) vcan0 10D#0CB007FC0000
(0000000144.073476) vcan0 0F5#7D0C14FFD7F800D0
(0000000144.073680) vcan0 0FB#00F07D00
(0000000144.078485) vcan0 0F6#FF640030000FFC00
(0000000144.078715) vcan0 10D#04C007FC0000
(0000000144.083472) vcan0 0F5#7D0D77FFD7F800C8
(0000000144.083682) vcan0 0FB#00F07D00
(0000000144.088496) vcan0 0F6#FF640030000FFC00
(0000000144.088716) vcan0 10D#BDD007FC0000
(0000000144.093473) vcan0 0F5#7D0E98FFD7F800D0
(0000000144.093682) vcan0 0FB#00F07D00
(0000000144.098485) vcan0 0F6#FF640030000FFC00
(0000000144.098718) vcan0 10D#6BE007FC0000
(0000000144.103490) vcan0 0F5#7D0FDEFFD7F800D0
(0000000144.103683) vcan0 0FB#00F07D00
(0000000144.108490) vcan0 0F6#FF640030000FFC00
(0000000144.108715) vcan0 10D#D2F007FC0000
(0000000144.113476) vcan0 0F5#7D001BFFD7F800D0
(0000000144.113679) vcan0 0FB#00F07D00
(0000000144.118484) vcan0 0F6#FF640030000FFC00
(0000000144.118746) vcan0 37E#410400C001D388FF
(0000000144.119004) vcan0 10D#7B0007FC0000
(0000000144.123475) vcan0 0F5#7D0117FFD7F800E0
(0000000144.123679) vcan0 0FB#00F07D00
(0000000144.128480) vcan0 0F6#FF640030000FFC00
(0000000144.128716) vcan0 10D#C21007FC0000
(0000000144.133471) vcan0 0F5#7D0297FFD7F800D0
(0000000144.133676) vcan0 0FB#00F07D00
(0000000144.133970) vcan0 383#9800FF0000140000
(0000000144.134227) vcan0 466#14476E93D149F80A
(0000000144.138501) vcan0 0F6#FF640030000FFC00
(0000000144.138712) vcan0 10D#142007FC0000
(0000000144.143477) vcan0 0F5#7D03D1FFD7F800D0
(0000000144.143681) vcan0 0FB#00F07D00
(0000000144.143814) vcan0 384#00
(0000000144.148484) vcan0 0F6#FF640030000FFC00
(0000000144.148713) vcan0 10D#AD3007FC0000
(0000000144.153484) vcan0 0F5#7D041EFFD7F800D0
(0000000144.153682) vcan0 0FB#00F07D00
(0000000144.158481) vcan0 0F6#FF640030000FFC00
(0000000144.158715) vcan0 10D#A54007FC0000
(0000000144.163471) vcan0 0F5#7D0558FFD7F800D0
(0000000144.163676) vcan0 0FB#00F07D00
(0000000144.168476) vcan0 0F6#FF640030000FFC00
(0000000144.168706) vcan0 10D#1C5007FC0000
(0000000144.173480) vcan0 0F5#7D0692FFD7F800D0
(0000000144.173676) vcan0 0FB#00F07D00
(0000000144.178485) vcan0 0F6#FF640030000FFC00
(0000000144.178715) vcan0 10D#CA6007FC0000
(0000000144.183469) vcan0 0F5#7D07D4FFD7F800D0
(0000000144.183681) vcan0 0FB#00F07D00
(0000000144.188474) vcan0 0F6#FF640030000FFC00
(0000000144.188720) vcan0 10D#737007FC0000
(0000000144.193470) vcan0 0F5#7D0811FFD7F800D0
(0000000144.193678) vcan0 0FB#00F07D00
(0000000144.198474) vcan0 0F6#FF640030000FFC00
(0000000144.198713) vcan0 10D#DA8007FC0000
(0000000144.203469) vcan0 0F5#7D0957FFD7F800D0
(0000000144.203678) vcan0 0FB#00F07D00
(0000000144.208472) vcan0 0F6#FF640030000FFC00
(0000000144.208711) vcan0 10D#639007FC0000
(0000000144.213461) vcan0 0F5#7D0A9DFFD7F800D0
(0000000144.213677) vcan0 0FB#00F07D00
(0000000144.218472) vcan0 0F6#FF640030000FFC00
(0000000144.218750) vcan0 37E#410400C001D388FF
(0000000144.219005) vcan0 10D#B5A007FC0000
(0000000144.223468) vcan0 0F5#7D0BDBFFD7F800D0
(0000000144.223693) vcan0 0FB#00F07D00
(0000000144.228476) vcan0 0F6#FF640030000FFC00
(0000000144.228711) vcan0 10D#0CB007FC0000
(0000000144.233479) vcan0 0F5#7D0C14FFD7F800D0
(0000000144.233670) vcan0 0FB#00F07D00
(0000000144.234004) vcan0 383#9800FF0000140000
(0000000144.234232) vcan0 466#1486384D3D56DCA1
(0000000144.238474) vcan0 0F6#FF640030000FFC00
(0000000144.238713) vcan0 10D#04C007FC0000
(0000000144.243462) vcan0 0F5#7D0D52FFD7F800D0
(0000000144.243675) vcan0 0FB#00F07D00
(0000000144.248467) vcan0 0F6#FF640030000FFC00
(0000000144.248710) vcan0 10D#BDD007FC0000
(0000000144.253462) vcan0 0F5#7D0E98FFD7F800D0
(0000000144.253684) vcan0 0FB#00F07D00
(0000000144.258471) vcan0 0F6#FF640030000FFC00
(0000000144.258717) vcan0 10D#6BE007FC0000
(0000000144.263485) vcan0 0F5#7D0FFBFFD7F800C8
(0000000144.263680) vcan0 0FB#00F07D00
(0000000144.268476) vcan0 0F6#FF640030000FFC00
(0000000144.268707) vcan0 10D#D2F007FC0000
(0000000144.273477) vcan0 0F5#7D001BFFD7F800D0
(0000000144.273670) vcan0 0FB#00F07D00
(0000000144.278472) vcan0 0F6#FF640030000FFC00
(0000000144.278708) vcan0 10D#7B0007FC0000
(0000000144.283465) vcan0 0F5#7D0178FFD7F800C8
(0000000144.283673) vcan0 0FB#00F07D00
(0000000144.288466) vcan0 0F6#FF640030000FFC00
(0000000144.288722) vcan0 10D#C21007FC0000
(0000000144.293468) vcan0 0F5#7D02B2FFD7F800C8
(0000000144.293708) vcan0 0FB#00F07D00
(0000000144.298475) vcan0 0F6#FF640030000FFC00
(0000000144.298714) vcan0 10D#142007FC0000
(0000000144.303462) vcan0 0F5#7D03D1FFD7F800D0
(0000000144.303672) vcan0 0FB#00F07D00
(0000000144.308466) vcan0 0F6#FF640030000FFC00
(0000000144.308702) vcan0 10D#AD3007FC0000
(0000000144.313466) vcan0 0F5#7D043BFFD7F800C8
(0000000144.313697) vcan0 0FB#00F07D00
(0000000144.318465) vcan0 0F6#FF640030000FFC00
(0000000144.318743) vcan0 37E#410400C001D388FF
(0000000144.318998) vcan0 10D#A54007FC0000
(0000000144.323466) vcan0 0F5#7D0558FFD7F800D0
(0000000144.323694) vcan0 0FB#00F07D00
(0000000144.328486) vcan0 0F6#FF640030000FFC00
(0000000144.328702) vcan0 10D#1C5007FC0000
(0000000144.333466) vcan0 0F5#7D0692FFD7F800D0
(0000000144.333696) vcan0 0FB#00F07D00
(0000000144.333981) vcan0 383#9800FF0000140000
(0000000144.334224) vcan0 466#14C50207A863C039
(0000000144.338467) vcan0 0F6#FF640030000FFC00
(0000000144.338725) vcan0 10D#CA6007FC0000
(0000000144.343461) vcan0 0F5#7D07F1FFD7F800C8
(0000000144.343681) vcan0 0FB#00F07D00
(0000000144.348463) vcan0 0F6#FF640030000FFC00
(0000000144.348709) vcan0 10D#737007FC0000
(0000000144.353453) vcan0 0F5#7D0834FFD7F800C8
(0000000144.353673) vcan0 0FB#00F07D00
(0000000144.358463) vcan0 0F6#FF640030000FFC00
(0000000144.358713) vcan0 10D#DA8007FC0000
(0000000144.363454) vcan0 0F5#7D0957FFD7F800D0
(0000000144.363671) vcan0 0FB#00F07D00
(0000000144.368460) vcan0 0F6#FF640030000FFC00
(0000000144.368719) vcan0 10D#639007FC0000
(0000000144.373450) vcan0 0F5#7D0A9DFFD7F800D0
(0000000144.373678) vcan0 0FB#00F07D00
(0000000144.378482) vcan0 0F6#FF640030000FFC00
(0000000144.378710) vcan0 10D#B5A007FC0000
(0000000144.383454) vcan0 0F5#7D0BFEFFD7F800C8
(0000000144.383674) vcan0 0FB#00F07D00
(0000000144.388463) vcan0 0F6#FF640030000FFC00
(0000000144.388704) vcan0 10D#0CB007FC0000
(0000000144.393460) vcan0 0F5#7D0C31FFD7F800C8
(0000000144.393670) vcan0 0FB#00F07D00
(0000000144.398461) vcan0 0F6#FF640030000FFC00
(0000000144.398705) vcan0 10D#04C007FC0000
(0000000144.403450) vcan0 0F5#7D0D52FFD7F800D0
(0000000144.403673) vcan0 0FB#00F07D00
(0000000144.408476) vcan0 0F6#FF640030000FFC00
(0000000144.408706) vcan0 10D#BDD007FC0000
(0000000144.413449) vcan0 0F5#7D0E98FFD7F800D0
(0000000144.413672) vcan0 0FB#00F07D00
(0000000144.418455) vcan0 0F6#FF640030000FFC00
(0000000144.418736) vcan0 37E#410400C001C988FF
(0000000144.418997) vcan0 10D#6BE007FC0000
(0000000144.423450) vcan0 0F5#7D0F94FFD7F800E0
(0000000144.423670) vcan0 0FB#00F07D00
(0000000144.428452) vcan0 0F6#FF640030000FFC00
(0000000144.428700) vcan0 10D#D2F007FC0000
(0000000144.433459) vcan0 0F5#7D001BFFD7F800D0
(0000000144.433671) vcan0 0FB#00F07D00
(0000000144.433975) vcan0 383#9800FF0000140000
(0000000144.434232) vcan0 466#1405CBC01470A4D0
(0000000144.438468) vcan0 0F6#FF640030000FFC00
(0000000144.438699) vcan0 10D#7B0007FC0000
(0000000144.443472) vcan0 0F5#7D015DFFD7F800D0
(0000000144.443668) vcan0 0FB#00F07D00
(0000000144.448457) vcan0 0F6#FF640030000FFC00
(0000000144.448702) vcan0 10D#C21007FC0000
(0000000144.453446) vcan0 0F5#7D0297FFD7F800D0
(0000000144.453672) vcan0 0FB#00F07D00
(0000000144.458452) vcan0 0F6#FF640030000FFC00
(0000000144.458701) vcan0 10D#142007FC0000
(0000000144.463450) vcan0 0F5#7D03F4FFD7F800C8
(0000000144.463667) vcan0 0FB#00F07D00
(0000000144.468448) vcan0 0F6#FF640030000FFC00
(0000000144.468698) vcan0 10D#AD3007FC0000
(0000000144.473446) vcan0 0F5#7D041EFFD7F800D0
(0000000144.473669) vcan0 0FB#00F07D00
(0000000144.478446) vcan0 0F6#FF640030000FFC00
(0000000144.478698) vcan0 10D#A54007FC0000
(0000000144.483441) vcan0 0F5#7D0558FFD7F800D0
(0000000144.483669) vcan0 0FB#00F07D00
(0000000144.488461) vcan0 0F6#FF640030000FFC00
(0000000144.488706) vcan0 10D#1C5007FC0000
(0000000144.493441) vcan0 0F5#7D0692FFD7F800D0
(0000000144.493668) vcan0 0FB#00F07D00
(0000000144.498489) vcan0 0F6#FF640030000FFC00
(0000000144.498700) vcan0 10D#CA6007FC0000
(0000000144.503485) vcan0 0F5#7D07F1FFD7F800C8
(0000000144.503685) vcan0 0FB#00F07D00
(0000000144.508490) vcan0 0F6#FF640030000FFC00
(0000000144.508697) vcan0 10D#737007FC0000
(0000000144.513482) vcan0 0F5#7D0811FFD7F800D0
(0000000144.513694) vcan0 0FB#00F07D00
(0000000144.518475) vcan0 0F6#FF640030000FFC00
(0000000144.518746) vcan0 37E#410400C001D388FF
(0000000144.518995) vcan0 10D#DA8007FC0000
(0000000144.523473) vcan0 0F5#7D0957FFD7F800D0
(0000000144.523665) vcan0 0FB#00F07D00
(0000000144.528481) vcan0 0F6#FF640030000FFC00
(0000000144.528702) vcan0 10D#639007FC0000
(0000000144.533468) vcan0 0F5#7D0AB8FFD7F800C8
(0000000144.533669) vcan0 0FB#00F07D00
(0000000144.533956) vcan0 383#9800FF0000140000
(0000000144.534215) vcan0 466#1444957A7F7D8868
(0000000144.538470) vcan0 0F6#FF640030000FFC00
(0000000144.538701) vcan0 10D#B5A007FC0000
(0000000144.543428) vcan0 0F5#7D0BDBFFD7F800D0
(0000000144.543667) vcan0 0FB#00F07D00
(0000000144.548436) vcan0 0F6#FF640030000FFC00
(0000000144.548691) vcan0 10D#0CB007FC0000
(0000000144.553431) vcan0 0F5#7D0C31FFD7F800C8
(0000000144.553660) vcan0 0FB#00F07D00
(0000000144.558444) vcan0 0F6#FF640030000FFC00
(0000000144.558690) vcan0 10D#04C007FC0000
(0000000144.563433) vcan0 0F5#7D0D52FFD7F800D0
(0000000144.563662) vcan0 0FB#00F07D00
(0000000144.568458) vcan0 0F6#FF640030000FFC00
(0000000144.568695) vcan0 10D#BDD007FC0000
(0000000144.573432) vcan0 0F5#7D0E98FFD7F800D0
(0000000144.573657) vcan0 0FB#00F07D00
(0000000144.578445) vcan0 0F6#FF640030000FFC00
(0000000144.578697) vcan0 10D#6BE007FC0000
(0000000144.583433) vcan0 0F5#7D0FFBFFD7F800C8
(0000000144.583662) vcan0 0FB#00F07D00
(0000000144.588434) vcan0 0F6#FF640030000FFC00
(0000000144.588692) vcan0 10D#D2F007FC0000
(0000000144.593430) vcan0 0F5#7D003EFFD7F800C8
(0000000144.593657) vcan0 0FB#00F07D00
(0000000144.598439) vcan0 0F6#FF640030000FFC00
(0000000144.598691) vcan0 10D#7B0007FC0000
(0000000144.603431) vcan0 0F5#7D015DFFD7F800D0
(0000000144.603661) vcan0 0FB#00F07D00
(0000000144.608435) vcan0 0F6#FF640030000FFC00
(0000000144.608691) vcan0 10D#C21007FC0000
(0000000144.613424) vcan0 0F5#7D02B2FFD7F800C8
(0000000144.613659) vcan0 0FB#00F07D00
(0000000144.618434) vcan0 0F6#FF640030000FFC00
(0000000144.618724) vcan0 37E#410400C001C988FF
(0000000144.618977) vcan0 10D#142007FC0000
(0000000144.623427) vcan0 0F5#7D03D1FFD7F800D0
(0000000144.623655) vcan0 0FB#00F07D00
(0000000144.628435) vcan0 0F6#FF640030000FFC00
(0000000144.628692) vcan0 10D#AD3007FC0000
(0000000144.633449) vcan0 0F5#7D041EFFD7F800D0
(0000000144.633674) vcan0 0FB#00F07D00
(0000000144.633947) vcan0 383#9800FF0000140000
(0000000144.634213) vcan0 466#14835F34EA8A6C00
(0000000144.638439) vcan0 0F6#FF640030000FFC00
(0000000144.638693) vcan0 10D#A54007FC0000
(0000000144.643436) vcan0 0F5#7D0558FFD7F800D0
(0000000144.643658) vcan0 0FB#00F07D00
(0000000144.643802) vcan0 384#00
(0000000144.648436) vcan0 0F6#FF640030000FFC00
(0000000144.648697) vcan0 10D#1C5007FC0000
(0000000144.653429) vcan0 0F5#7D0692FFD7F800D0
(0000000144.653659) vcan0 0FB#00F07D00
(0000000144.658434) vcan0 0F6#FF640030000FFC00
(0000000144.658699) vcan0 10D#CA6007FC0000
(0000000144.663430) vcan0 0F5#7D07D4FFD7F800D0
(0000000144.663659) vcan0 0FB#00F07D00
(0000000144.668434) vcan0 0F6#FF640030000FFC00
(0000000144.668700) vcan0 10D#737007FC0000
(0000000144.673427) vcan0 0F5#7D0811FFD7F800D0
(0000000144.673664) vcan0 0FB#00F07D00
(0000000144.678444) vcan0 0F6#FF640030000FFC00
(0000000144.678714) vcan0 10D#DA8007FC0000
(0000000144.683432) vcan0 0F5#7D0957FFD7F800D0
(0000000144.683652) vcan0 0FB#00F07D00
(0000000144.688446) vcan0 0F6#FF640030000FFC00
(0000000144.688689) vcan0 10D#639007FC0000
(0000000144.693434) vcan0 0F5#7D0A9DFFD7F800D0
(0000000144.693691) vcan0 0FB#00F07D00
(0000000144.698444) vcan0 0F6#FF640030000FFC00
(0000000144.698694) vcan0 10D#B5A007FC0000
(0000000144.703425) vcan0 0F5#7D0BDBFFD7F800D0
(0000000144.703593) vcan0 0FB#00F07D00
(0000000144.708435) vcan0 0F6#FF640030000FFC00
(0000000144.708689) vcan0 10D#0CB007FC0000
(0000000144.713428) vcan0 0F5#7D0C14FFD7F800D0
(0000000144.713651) vcan0 0FB#00F07D00
(0000000144.718428) vcan0 0F6#FF640030000FFC00
(0000000144.718719) vcan0 37E#410400C001D388FF
(0000000144.718985) vcan0 10D#04C007FC0000
(0000000144.723423) vcan0 0F5#7D0D18FFD7F800E0
(0000000144.723648) vcan0 0FB#01187D00
(0000000144.728453) vcan0 0F6#FF640030000FFC00
(0000000144.728732) vcan0 10D#BDD007FC0000
(0000000144.733419) vcan0 0F5#7D0E98FFD7F800D0
(0000000144.733585) vcan0 0FB#01187D00
(0000000144.733827) vcan0 383#9800FF0000140000
(0000000144.734117) vcan0 466#14C229ED56975097
(0000000144.738430) vcan0 0F6#FF640030000FFC00
(0000000144.738718) vcan0 10D#6BE007FC0000
(0000000144.743421) vcan0 0F5#7D0FDEFFD7F800D0
(0000000144.743584) vcan0 0FB#01187D00
(0000000144.748425) vcan0 0F6#FF640030000FFC00
(0000000144.748692) vcan0 10D#D2F007FC0000
(0000000144.753419) vcan0 0F5#7D001BFFD7F800D0
(0000000144.753654) vcan0 0FB#01187D00
(0000000144.758429) vcan0 0F6#FF640030000FFC00
(0000000144.758693) vcan0 10D#7B0007FC0000
(0000000144.763421) vcan0 0F5#7D015DFFD7F800D0
(0000000144.763648) vcan0 0FB#01187D00
(0000000144.768424) vcan0 0F6#FF640030000FFC00
(0000000144.768691) vcan0 10D#C21007FC0000
(0000000144.773420) vcan0 0F5#7D02B2FFD7F800C8
(0000000144.773649) vcan0 0FB#01187D00
(0000000144.778432) vcan0 0F6#FF640030000FFC00
(0000000144.778689) vcan0 10D#142007FC0000
(0000000144.783427) vcan0 0F5#7D039BFFD7F800E0
(0000000144.783653) vcan0 0FB#01187D00
(0000000144.788448) vcan0 0F6#FF640030000FFC00
(0000000144.788701) vcan0 10D#AD3007FC0000
(0000000144.793435) vcan0 0F5#7D041EFFD7F800D0
(0000000144.793657) vcan0 0FB#01187D00
(0000000144.798437) vcan0 0F6#FF640030000FFC00
(0000000144.798693) vcan0 10D#A54007FC0000
(0000000144.803429) vcan0 0F5#7D0558FFD7F800D0
(0000000144.803648) vcan0 0FB#01187D00
(0000000144.808431) vcan0 0F6#FF640030000FFC00
(0000000144.808703) vcan0 10D#1C5007FC0000
(0000000144.813421) vcan0 0F5#7D0692FFD7F800D0
(0000000144.813647) vcan0 0FB#01187D00
(0000000144.818430) vcan0 0F6#FF640030000FFC00
(0000000144.818722) vcan0 37E#410400C001D388FF
(0000000144.818986) vcan0 10D#CA6007FC0000
(0000000144.823440) vcan0 0F5#7D07F1FFD7F800C8
(0000000144.823652) vcan0 0FB#00F07D00
(0000000144.828428) vcan0 0F6#FF640030000FFC00
(0000000144.828681) vcan0 10D#737007FC0000
(0000000144.833418) vcan0 0F5#7D0834FFD7F800C8
(0000000144.833588) vcan0 0FB#00F07D00
(0000000144.833837) vcan0 383#9800FF0000140000
(0000000144.834112) vcan0 466#1402F2A7C1A4342F
(0000000144.838427) vcan0 0F6#FF640030000FFC00
(0000000144.838687) vcan0 10D#DA8007FC0000
(0000000144.843435) vcan0 0F5#7D091DFFD7F800E0
(0000000144.843657) vcan0 0FB#00F07D00
(0000000144.848434) vcan0 0F6#FF640030000FFC00
(0000000144.848691) vcan0 10D#639007FC0000
(0000000144.853445) vcan0 0F5#7D0A9DFFD7F800D0
(0000000144.853604) vcan0 0FB#00F07D00
(0000000144.858459) vcan0 0F6#FF640030000FFC00
(0000000144.858700) vcan0 10D#B5A007FC0000
(0000000144.863427) vcan0 0F5#7D0BDBFFD7F800D0
(0000000144.863595) vcan0 0FB#00F07D00
(0000000144.868435) vcan0 0F6#FF640030000FFC00
(0000000144.868696) vcan0 10D#0CB007FC0000
(0000000144.873429) vcan0 0F5#7D0C14FFD7F800D0
(0000000144.873592) vcan0 0FB#00F07D00
(0000000144.878435) vcan0 0F6#FF640030000FFC00
(0000000144.878703) vcan0 10D#04C007FC0000
(0000000144.883427) vcan0 0F5#7D0D77FFD7F800C8
(0000000144.883595) vcan0 0FB#00F07D00
(0000000144.888433) vcan0 0F6#FF640030000FFC00
(0000000144.888706) vcan0 10D#BDD007FC0000
(0000000144.893442) vcan0 0F5#7D0EBDFFD7F800C8
(0000000144.893571) vcan0 0FB#00F07D00
(0000000144.898446) vcan0 0F6#FF640030000FFC00
(0000000144.898691) vcan0 10D#6BE007FC0000
(0000000144.903443) vcan0 0F5#7D0FDEFFD7F800D0
(0000000144.903608) vcan0 0FB#00F07D00
(0000000144.908436) vcan0 0F6#FF640030000FFC00
(0000000144.908697) vcan0 10D#D2F007FC0000
(0000000144.913430) vcan0 0F5#7D001BFFD7F800D0
(0000000144.913656) vcan0 0FB#00F07D00
(0000000144.918451) vcan0 0F6#FF640030000FFC00
(0000000144.918734) vcan0 37E#410400C001D388FF
(0000000144.918985) vcan0 10D#7B0007FC0000
(0000000144.923434) vcan0 0F5#7D015DFFD7F800D0
(0000000144.923655) vcan0 0FB#00F07D00
(0000000144.928433) vcan0 0F6#FF640030000FFC00
(0000000144.928705) vcan0 10D#C21007FC0000
(0000000144.933430) vcan0 0F5#7D0297FFD7F800D0
(0000000144.933655) vcan0 0FB#00F07D00
(0000000144.933953) vcan0 383#9800FF0000140000
(0000000144.934224) vcan0 466#1441BC612DB118C6
(0000000144.938442) vcan0 0F6#FF640030000FFC00
(0000000144.938690) vcan0 10D#142007FC0000
(0000000144.943418) vcan0 0F5#7D03D1FFD7F800D0
(0000000144.943649) vcan0 0FB#00F07D00
(0000000144.948420) vcan0 0F6#FF640030000FFC00
(0000000144.948692) vcan0 10D#AD3007FC0000
(0000000144.953418) vcan0 0F5#7D043BFFD7F800C8
(0000000144.953662) vcan0 0FB#00F07D00
(0000000144.958419) vcan0 0F6#FF640030000FFC00
(0000000144.958683) vcan0 10D#A54007FC0000
(0000000144.963417) vcan0 0F5#7D0558FFD7F800D0
(0000000144.963648) vcan0 0FB#00F07D00
(0000000144.968420) vcan0 0F6#FF640030000FFC00
(0000000144.968684) vcan0 10D#1C5007FC0000
(0000000144.973414) vcan0 0F5#7D06B7FFD7F800C8
(0000000144.973583) vcan0 0FB#00F07D00
(0000000144.978424) vcan0 0F6#FF640030000FFC00
(0000000144.978690) vcan0 10D#CA6007FC0000
(0000000144.983430) vcan0 0F5#7D07D4FFD7F800D0
(0000000144.983652) vcan0 0FB#00F07D00
(0000000144.988423) vcan0 0F6#FF640030000FFC00
(0000000144.988677) vcan0 10D#737007FC0000
(0000000144.993414) vcan0 0F5#7D085BFFD7F800E0
(0000000144.993585) vcan0 0FB#00F07D00
(0000000144.998432) vcan0 0F6#FF640030000FFC00
(0000000144.998678) vcan0 10D#DA8007FC0000
(0000000145.003430) vcan0 0F5#7D0957FFD7F800D0
(0000000145.003583) vcan0 0FB#00F07D00
(0000000145.008420) vcan0 0F6#FF640030000FFC00
(0000000145.008686) vcan0 10D#639007FC0000
(0000000145.013410) vcan0 0F5#7D0AB8FFD7F800C8
(0000000145.013578) vcan0 0FB#00F07D00
(0000000145.018422) vcan0 0F6#FF640030000FFC00
(0000000145.018712) vcan0 37E#410400C001D388FF
(0000000145.018976) vcan0 10D#B5A007FC0000
(0000000145.023414) vcan0 0F5#7D0BDBFFD7F800D0
(0000000145.023584) vcan0 0FB#01187D00
(0000000145.028428) vcan0 0F6#FF640030000FFC00
(0000000145.028682) vcan0 10D#0CB007FC0000
(0000000145.033419) vcan0 0F5#7D0C14FFD7F800D0
(0000000145.033633) vcan0 0FB#01187D00
(0000000145.033950) vcan0 383#9800FF0000140000
(0000000145.034199) vcan0 466#1480861B98BEFB5E
(0000000145.038421) vcan0 0F6#FF640030000FFC00
(0000000145.038688) vcan0 10D#04C007FC0000
(0000000145.043424) vcan0 0F5#7D0D52FFD7F800D0
(0000000145.043588) vcan0 0FB#01187D00
(0000000145.048432) vcan0 0F6#FF640030000FFC00
(0000000145.048699) vcan0 10D#BDD007FC0000
(0000000145.053417) vcan0 0F5#7D0E98FFD7F800D0
(0000000145.053586) vcan0 0FB#01187D00
(0000000145.058425) vcan0 0F6#FF640030000FFC00
(0000000145.058702) vcan0 10D#6BE007FC0000
(0000000145.063417) vcan0 0F5#7D0FDEFFD7F800D0
(0000000145.063583) vcan0 0FB#01187D00
(0000000145.068424) vcan0 0F6#FF640030000FFC00
(0000000145.068690) vcan0 10D#D2F007FC0000
(0000000145.073419) vcan0 0F5#7D001BFFD7F800D0
(0000000145.073647) vcan0 0FB#01187D00
(0000000145.078423) vcan0 0F6#FF640030000FFC00
(0000000145.078683) vcan0 10D#7B0007FC0000
(0000000145.083418) vcan0 0F5#7D015DFFD7F800D0
(0000000145.083651) vcan0 0FB#01187D00
(0000000145.088440) vcan0 0F6#FF640030000FFC00
(0000000145.088693) vcan0 10D#C21007FC0000
(0000000145.093422) vcan0 0F5#7D0297FFD7F800D0
(0000000145.093650) vcan0 0FB#01187D00
(0000000145.098421) vcan0 0F6#FF640030000FFC00
(0000000145.098701) vcan0 10D#142007FC0000
(0000000145.103420) vcan0 0F5#7D03D1FFD7F800D0
(0000000145.103660) vcan0 0FB#01187D00
(0000000145.108419) vcan0 0F6#FF640030000FFC00
(0000000145.108678) vcan0 10D#AD3007FC0000
(0000000145.113427) vcan0 0F5#7D041EFFD7F800D0
(0000000145.113642) vcan0 0FB#01187D00
(0000000145.118427) vcan0 0F6#FF640030000FFC00
(0000000145.118743) vcan0 37E#410400C001D388FF
(0000000145.118977) vcan0 10D#A54007FC0000
(0000000145.123421) vcan0 0F5#7D0558FFD7F800D0
(0000000145.123643) vcan0 0FB#01187D00
(0000000145.128438) vcan0 0F6#FF640030000FFC00
(0000000145.128686) vcan0 10D#1C5007FC0000
(0000000145.133415) vcan0 0F5#7D0692FFD7F800D0
(0000000145.133643) vcan0 0FB#01187D00
(0000000145.133980) vcan0 383#9800FF0000140000
(0000000145.134212) vcan0 466#14BF50D404CBDFF5
(0000000145.138427) vcan0 0F6#FF640030000FFC00
(0000000145.138695) vcan0 10D#CA6007FC0000
(0000000145.143414) vcan0 0F5#7D07D4FFD7F800D0
(0000000145.143652) vcan0 0FB#01187D00
(0000000145.143782) vcan0 384#00
(0000000145.148412) vcan0 0F6#FF640030000FFC00
(0000000145.148677) vcan0 10D#737007FC0000
(0000000145.153412) vcan0 0F5#7D0811FFD7F800D0
(0000000145.153647) vcan0 0FB#01187D00
(0000000145.158431) vcan0 0F6#FF640030000FFC00
(0000000145.158674) vcan0 10D#DA8007FC0000
(0000000145.163410) vcan0 0F5#7D0957FFD7F800D0
(0000000145.163577) vcan0 0FB#01187D00
(0000000145.168411) vcan0 0F6#FF640030000FFC00
(0000000145.168678) vcan0 10D#639007FC0000
(0000000145.173403) vcan0 0F5#7D0A9DFFD7F800D0
(0000000145.173565) vcan0 0FB#01187D00
(0000000145.178410) vcan0 0F6#FF640030000FFC00
(0000000145.178687) vcan0 10D#B5A007FC0000
(0000000145.183405) vcan0 0F5#7D0BDBFFD7F800D0
(0000000145.183565) vcan0 0FB#01187D00
(0000000145.188409) vcan0 0F6#FF640030000FFC00
(0000000145.188678) vcan0 10D#0CB007FC0000
(0000000145.193403) vcan0 0F5#7D0C14FFD7F800D0
(0000000145.193631) vcan0 0FB#01187D00
(0000000145.198416) vcan0 0F6#FF640030000FFC00
(0000000145.198673) vcan0 10D#04C007FC0000
(0000000145.203415) vcan0 0F5#7D0D52FFD7F800D0
(0000000145.203566) vcan0 0FB#01187D00
(0000000145.208410) vcan0 0F6#FF640030000FFC00
(0000000145.208672) vcan0 10D#BDD007FC0000
(0000000145.213399) vcan0 0F5#7D0EBDFFD7F800C8
(0000000145.213569) vcan0 0FB#01187D00
(0000000145.218408) vcan0 0F6#FF640030000FFC00
(0000000145.218702) vcan0 37E#410400C001C988FF
(0000000145.218968) vcan0 10D#6BE007FC0000
(0000000145.223417) vcan0 0F5#7D0FDEFFD7F800D0
(0000000145.223570) vcan0 0FB#00F07D00
(0000000145.228422) vcan0 0F6#FF640030000FFC00
(0000000145.228678) vcan0 10D#D2F007FC0000
(0000000145.233407) vcan0 0F5#7D0051FFD7F800E0
(0000000145.233649) vcan0 0FB#00F07D00
(0000000145.233913) vcan0 383#9800FF0000140000
(0000000145.234195) vcan0 466#14FE1A8E6FD8C38D
(0000000145.238413) vcan0 0F6#FF640030000FFC00
(0000000145.238672) vcan0 10D#7B0007FC0000
(0000000145.243409) vcan0 0F5#7D015DFFD7F800D0
(0000000145.243634) vcan0 0FB#00F07D00
(0000000145.248412) vcan0 0F6#FF640030000FFC00
(0000000145.248684) vcan0 10D#C21007FC0000
(0000000145.253410) vcan0 0F5#7D0297FFD7F800D0
(0000000145.253642) vcan0 0FB#00F07D00
(0000000145.258418) vcan0 0F6#FF640030000FFC00
(0000000145.258674) vcan0 10D#142007FC0000
(0000000145.263408) vcan0 0F5#7D03D1FFD7F800D0
(0000000145.263644) vcan0 0FB#00F07D00
(0000000145.268409) vcan0 0F6#FF640030000FFC00
(0000000145.268664) vcan0 10D#AD3007FC0000
(0000000145.273404) vcan0 0F5#7D043BFFD7F800C8
(0000000145.273648) vcan0 0FB#00F07D00
(0000000145.278411) vcan0 0F6#FF640030000FFC00
(0000000145.278678) vcan0 10D#A54007FC0000
(0000000145.283415) vcan0 0F5#7D057DFFD7F800C8
(0000000145.283651) vcan0 0FB#00F07D00
(0000000145.288422) vcan0 0F6#FF640030000FFC00
(0000000145.288673) vcan0 10D#1C5007FC0000
(0000000145.293412) vcan0 0F5#7D0692FFD7F800D0
(0000000145.293640) vcan0 0FB#00F07D00
(0000000145.298425) vcan0 0F6#FF640030000FFC00
(0000000145.298680) vcan0 10D#CA6007FC0000
(0000000145.303428) vcan0 0F5#7D07D4FFD7F800D0
(0000000145.303637) vcan0 0FB#00F07D00
(0000000145.308415) vcan0 0F6#FF640030000FFC00
(0000000145.308667) vcan0 10D#737007FC0000
(0000000145.313409) vcan0 0F5#7D0811FFD7F800D0
(0000000145.313651) vcan0 0FB#00F07D00
(0000000145.318433) vcan0 0F6#FF640030000FFC00
(0000000145.318709) vcan0 37E#410400C001C988FF
(0000000145.318966) vcan0 10D#DA8007FC0000
(0000000145.323413) vcan0 0F5#7D0957FFD7F800D0
(0000000145.323573) vcan0 0FB#00F07D00
(0000000145.328413) vcan0 0F6#FF640030000FFC00
(0000000145.328668) vcan0 10D#639007FC0000
(0000000145.333403) vcan0 0F5#7D0AB8FFD7F800C8
(0000000145.333569) vcan0 0FB#00F07D00
(0000000145.333822) vcan0 383#9800FF0000140000
(0000000145.334100) vcan0 466#143EE348DAE5A725
(0000000145.338411) vcan0 0F6#FF640030000FFC00
(0000000145.338682) vcan0 10D#B5A007FC0000
(0000000145.343411) vcan0 0F5#7D0BDBFFD7F800D0
(0000000145.343575) vcan0 0FB#00F07D00
(0000000145.348415) vcan0 0F6#FF640030000FFC00
(0000000145.348679) vcan0 10D#0CB007FC0000
(0000000145.353411) vcan0 0F5#7D0C14FFD7F800D0
(0000000145.353640) vcan0 0FB#00F07D00
(0000000145.358420) vcan0 0F6#FF640030000FFC00
(0000000145.358676) vcan0 10D#04C007FC0000
(0000000145.363413) vcan0 0F5#7D0D52FFD7F800D0
(0000000145.363581) vcan0 0FB#00F07D00
(0000000145.368414) vcan0 0F6#FF640030000FFC00
(0000000145.368676) vcan0 10D#BDD007FC0000
(0000000145.373406) vcan0 0F5#7D0E98FFD7F800D0
(0000000145.373591) vcan0 0FB#00F07D00
(0000000145.378417) vcan0 0F6#FF640030000FFC00
(0000000145.378679) vcan0 10D#6BE007FC0000
(0000000145.383418) vcan0 0F5#7D0F94FFD7F800E0
(0000000145.383664) vcan0 0FB#00F07D00
(0000000145.388418) vcan0 0F6#FF640030000FFC00
(0000000145.388679) vcan0 10D#D2F007FC0000
(0000000145.393412) vcan0 0F5#7D003EFFD7F800C8
(0000000145.393642) vcan0 0FB#00F07D00
(0000000145.398428) vcan0 0F6#FF640030000FFC00
(0000000145.398689) vcan0 10D#7B0007FC0000
(0000000145.403413) vcan0 0F5#7D015DFFD7F800D0
(0000000145.403638) vcan0 0FB#00F07D00
(0000000145.408427) vcan0 0F6#FF640030000FFC00
(0000000145.408698) vcan0 10D#C21007FC0000
(0000000145.413441) vcan0 0F5#7D02DDFFD7F800E0
(0000000145.413647) vcan0 0FB#00F07D00
(0000000145.418422) vcan0 0F6#FF640030000FFC00
(0000000145.418713) vcan0 37E#410400C001C988FF
(0000000145.418971) vcan0 10D#142007FC0000
(0000000145.423413) vcan0 0F5#7D03D1FFD7F800D0
(0000000145.423641) vcan0 0FB#00F07D00
(0000000145.428413) vcan0 0F6#FF640030000FFC00
(0000000145.428669) vcan0 10D#AD3007FC0000
(0000000145.433410) vcan0 0F5#7D041EFFD7F800D0
(0000000145.433640) vcan0 0FB#00F07D00
(0000000145.433912) vcan0 383#9800FF0000140000
(0000000145.434195) vcan0 466#147DAD0246F28BBC
(0000000145.438417) vcan0 0F6#FF640030000FFC00
(0000000145.438675) vcan0 10D#A54007FC0000
(0000000145.443433) vcan0 0F5#7D0558FFD7F800D0
(0000000145.443637) vcan0 0FB#00F07D00
(0000000145.448429) vcan0 0F6#FF640030000FFC00
(0000000145.448668) vcan0 10D#1C5007FC0000
(0000000145.453408) vcan0 0F5#7D0692FFD7F800D0
(0000000145.453635) vcan0 0FB#00F07D00
(0000000145.458413) vcan0 0F6#FF640030000FFC00
(0000000145.458678) vcan0 10D#CA6007FC0000
(0000000145.463411) vcan0 0F5#7D07F1FFD7F800C8
(0000000145.463637) vcan0 0FB#00F07D00
(0000000145.468413) vcan0 0F6#FF640030000FFC00
(0000000145.468671) vcan0 10D#737007FC0000
(0000000145.473415) vcan0 0F5#7D0811FFD7F800D0
(0000000145.473644) vcan0 0FB#00F07D00
(0000000145.478413) vcan0 0F6#FF640030000FFC00
(0000000145.478683) vcan0 10D#DA8007FC0000
(0000000145.483406) vcan0 0F5#7D0957FFD7F800D0
(0000000145.483575) vcan0 0FB#00F07D00
(0000000145.488406) vcan0 0F6#FF640030000FFC00
(0000000145.488673) vcan0 10D#639007FC0000
(0000000145.493415) vcan0 0F5#7D0A9DFFD7F800D0
(0000000145.493576) vcan0 0FB#00F07D00
(0000000145.498413) vcan0 0F6#FF640030000FFC00
(0000000145.498679) vcan0 10D#B5A007FC0000
(0000000145.503404) vcan0 0F5#7D0BDBFFD7F800D0
(0000000145.503576) vcan0 0FB#00F07D00
(0000000145.508429) vcan0 0F6#FF640030000FFC00
(0000000145.508683) vcan0 10D#0CB007FC0000
(0000000145.513411) vcan0 0F5#7D0C14FFD7F800D0
(0000000145.513589) vcan0 0FB#00F07D00
(0000000145.518427) vcan0 0F6#FF640030000FFC00
(0000000145.518710) vcan0 37E#410400C001C988FF
(0000000145.518964) vcan0 10D#04C007FC0000
(0000000145.523401) vcan0 0F5#7D0D77FFD7F800C8
(0000000145.523566) vcan0 0FB#01187D00
(0000000145.528416) vcan0 0F6#FF640030000FFC00
(0000000145.528675) vcan0 10D#BDD007FC0000
(0000000145.533443) vcan0 0F5#7D0E98FFD7F800D0
(0000000145.533570) vcan0 0FB#01187D00
(0000000145.533816) vcan0 383#9800FF0000140000
(0000000145.534096) vcan0 466#14BC77BBB1006F54
(0000000145.538441) vcan0 0F6#FF640030000FFC00
(0000000145.538678) vcan0 10D#6BE007FC0000
(0000000145.543449) vcan0 0F5#7D0FFBFFD7F800C8
(0000000145.543628) vcan0 0FB#01187D00
(0000000145.548442) vcan0 0F6#FF640030000FFC00
(0000000145.548665) vcan0 10D#D2F007FC0000
(0000000145.553437) vcan0 0F5#7D001BFFD7F800D0
(0000000145.553640) vcan0 0FB#01187D00
(0000000145.558432) vcan0 0F6#FF640030000FFC00
(0000000145.558656) vcan0 10D#7B0007FC0000
(0000000145.563436) vcan0 0F5#7D015DFFD7F800D0
(0000000145.563623) vcan0 0FB#01187D00
(0000000145.568428) vcan0 0F6#FF640030000FFC00
(0000000145.568668) vcan0 10D#C21007FC0000
(0000000145.573432) vcan0 0F5#7D0297FFD7F800D0
(0000000145.573625) vcan0 0FB#01187D00
(0000000145.578403) vcan0 0F6#FF640030000FFC00
(0000000145.578663) vcan0 10D#142007FC0000
(0000000145.583401) vcan0 0F5#7D03F4FFD7F800C8
(0000000145.583627) vcan0 0FB#01187D00
(0000000145.588417) vcan0 0F6#FF640030000FFC00
(0000000145.588703) vcan0 10D#AD3007FC0000
(0000000145.593395) vcan0 0F5#7D0454FFD7F800E0
(0000000145.593631) vcan0 0FB#01187D00
(0000000145.598405) vcan0 0F6#FF640030000FFC00
(0000000145.598664) vcan0 10D#A54007FC0000
(0000000145.603399) vcan0 0F5#7D0558FFD7F800D0
(0000000145.603617) vcan0 0FB#01187D00
(0000000145.608398) vcan0 0F6#FF640030000FFC00
(0000000145.608662) vcan0 10D#1C5007FC0000
(0000000145.613399) vcan0 0F5#7D0692FFD7F800D0
(0000000145.613618) vcan0 0FB#01187D00
(0000000145.618404) vcan0 0F6#FF640030000FFC00
(0000000145.618715) vcan0 37E#410400C001D388FF
(0000000145.618961) vcan0 10D#CA6007FC0000
(0000000145.623423) vcan0 0F5#7D07D4FFD7F800D0
(0000000145.623635) vcan0 0FB#00F07D00
(0000000145.628402) vcan0 0F6#FF640030000FFC00
(0000000145.628656) vcan0 10D#737007FC0000
(0000000145.633395) vcan0 0F5#7D0811FFD7F800D0
(0000000145.633622) vcan0 0FB#00F07D00
(0000000145.633901) vcan0 383#9800FF0000140000
(0000000145.634179) vcan0 466#14FB41751D0D53EB
(0000000145.638400) vcan0 0F6#FF640030000FFC00
(0000000145.638664) vcan0 10D#DA8007FC0000
(0000000145.643403) vcan0 0F5#7D0972FFD7F800C8
(0000000145.643554) vcan0 0FB#00F07D00
(0000000145.643669) vcan0 384#00
(0000000145.648387) vcan0 0F6#FF640030000FFC00
(0000000145.648652) vcan0 10D#639007FC0000
(0000000145.653381) vcan0 0F5#7D0A9DFFD7F800D0
(0000000145.653555) vcan0 0FB#00F07D00
(0000000145.658394) vcan0 0F6#FF640030000FFC00
(0000000145.658656) vcan0 10D#B5A007FC0000
(0000000145.663395) vcan0 0F5#7D0BFEFFD7F800C8
(0000000145.663555) vcan0 0FB#00F07D00
(0000000145.668395) vcan0 0F6#FF640030000FFC00
(0000000145.668650) vcan0 10D#0CB007FC0000
(0000000145.673383) vcan0 0F5#7D0C14FFD7F800D0
(0000000145.673559) vcan0 0FB#00F07D00
(0000000145.678394) vcan0 0F6#FF640030000FFC00
(0000000145.678652) vcan0 10D#04C007FC0000
(0000000145.683387) vcan0 0F5#7D0D52FFD7F800D0
(0000000145.683566) vcan0 0FB#00F07D00
(0000000145.688390) vcan0 0F6#FF640030000FFC00
(0000000145.688651) vcan0 10D#BDD007FC0000
(0000000145.693381) vcan0 0F5#7D0EBDFFD7F800C8
(0000000145.693553) vcan0 0FB#00F07D00
(0000000145.698385) vcan0 0F6#FF640030000FFC00
(0000000145.698651) vcan0 10D#6BE007FC0000
(0000000145.703383) vcan0 0F5#7D0FDEFFD7F800D0
(0000000145.703618) vcan0 0FB#00F07D00
(0000000145.708388) vcan0 0F6#FF640030000FFC00
(0000000145.708649) vcan0 10D#D2F007FC0000
(0000000145.713385) vcan0 0F5#7D001BFFD7F800D0
(0000000145.713614) vcan0 0FB#00F07D00
(0000000145.718405) vcan0 0F6#FF640030000FFC00
(0000000145.718688) vcan0 37E#410400C001C988FF
(0000000145.718944) vcan0 10D#7B0007FC0000
(0000000145.723382) vcan0 0F5#7D015DFFD7F800D0
(0000000145.723612) vcan0 0FB#00F07D00
(0000000145.728385) vcan0 0F6#FF640030000FFC00
(0000000145.728651) vcan0 10D#C21007FC0000
(0000000145.733383) vcan0 0F5#7D0297FFD7F800D0
(0000000145.733613) vcan0 0FB#00F07D00
(0000000145.733889) vcan0 383#9800FF0000140000
(0000000145.734172) vcan0 466#143B0B2F881A3783
(0000000145.738383) vcan0 0F6#FF640030000FFC00
(0000000145.738650) vcan0 10D#142007FC0000
(0000000145.743381) vcan0 0F5#7D03D1FFD7F800D0
(0000000145.743618) vcan0 0FB#00F07D00
(0000000145.748428) vcan0 0F6#FF640030000FFC00
(0000000145.748663) vcan0 10D#AD3007FC0000
(0000000145.753408) vcan0 0F5#7D041EFFD7F800D0
(0000000145.753644) vcan0 0FB#00F07D00
(0000000145.758405) vcan0 0F6#FF640030000FFC00
(0000000145.758660) vcan0 10D#A54007FC0000
(0000000145.763406) vcan0 0F5#7D0558FFD7F800D0
(0000000145.763664) vcan0 0FB#00F07D00
(0000000145.768404) vcan0 0F6#FF640030000FFC00
(0000000145.768658) vcan0 10D#1C5007FC0000
(0000000145.773396) vcan0 0F5#7D0692FFD7F800D0
(0000000145.773628) vcan0 0FB#00F07D00
(0000000145.778406) vcan0 0F6#FF640030000FFC00
(0000000145.778671) vcan0 10D#CA6007FC0000
(0000000145.783403) vcan0 0F5#7D07D4FFD7F800D0
(0000000145.783649) vcan0 0FB#00F07D00
(0000000145.788407) vcan0 0F6#FF640030000FFC00
(0000000145.788677) vcan0 10D#737007FC0000
(0000000145.793401) vcan0 0F5#7D0811FFD7F800D0
(0000000145.793633) vcan0 0FB#00F07D00
(0000000145.798418) vcan0 0F6#FF640030000FFC00
(0000000145.798684) vcan0 10D#DA8007FC0000
(0000000145.803399) vcan0 0F5#7D0957FFD7F800D0
(0000000145.803558) vcan0 0FB#00F07D00
(0000000145.808401) vcan0 0F6#FF640030000FFC00
(0000000145.808659) vcan0 10D#639007FC0000
(0000000145.813412) vcan0 0F5#7D0AB8FFD7F800C8
(0000000145.813566) vcan0 0FB#00F07D00
(0000000145.818421) vcan0 0F6#FF640030000FFC00
(0000000145.818700) vcan0 37E#410400C001C988FF
(0000000145.818957) vcan0 10D#B5A007FC0000
(0000000145.823400) vcan0 0F5#7D0BFEFFD7F800C8
(0000000145.823561) vcan0 0FB#00F07D00
(0000000145.828400) vcan0 0F6#FF640030000FFC00
(0000000145.828666) vcan0 10D#0CB007FC0000
(0000000145.833391) vcan0 0F5#7D0C14FFD7F800D0
(0000000145.833561) vcan0 0FB#00F07D00
(0000000145.833808) vcan0 383#9800FF0000140000
(0000000145.834109) vcan0 466#147AD4E8F3271B1B
(0000000145.838400) vcan0 0F6#FF640030000FFC00
(0000000145.838657) vcan0 10D#04C007FC0000
(0000000145.843390) vcan0 0F5#7D0D52FFD7F800D0
(0000000145.843557) vcan0 0FB#00F07D00
(0000000145.848400) vcan0 0F6#FF640030000FFC00
(0000000145.848671) vcan0 10D#BDD007FC0000
(0000000145.853385) vcan0 0F5#7D0E98FFD7F800D0
(0000000145.853562) vcan0 0FB#00F07D00
(0000000145.858396) vcan0 0F6#FF640030000FFC00
(0000000145.858665) vcan0 10D#6BE007FC0000
(0000000145.863395) vcan0 0F5#7D0F94FFD7F800E0
(0000000145.863641) vcan0 0FB#00F07D00
(0000000145.868395) vcan0 0F6#FF640030000FFC00
(0000000145.868660) vcan0 10D#D2F007FC0000
(0000000145.873399) vcan0 0F5#7D001BFFD7F800D0
(0000000145.873630) vcan0 0FB#00F07D00
(0000000145.878417) vcan0 0F6#FF640030000FFC00
(0000000145.878660) vcan0 10D#7B0007FC0000
(0000000145.883397) vcan0 0F5#7D015DFFD7F800D0
(0000000145.883619) vcan0 0FB#00F07D00
(0000000145.888395) vcan0 0F6#FF640030000FFC00
(0000000145.888659) vcan0 10D#C21007FC0000
(0000000145.893390) vcan0 0F5#7D0297FFD7F800D0
(0000000145.893617) vcan0 0FB#00F07D00
(0000000145.898397) vcan0 0F6#FF640030000FFC00
(0000000145.898662) vcan0 10D#142007FC0000
(0000000145.903403) vcan0 0F5#7D03F4FFD7F800C8
(0000000145.903623) vcan0 0FB#00F07D00
(0000000145.908413) vcan0 0F6#FF640030000FFC00
(0000000145.908661) vcan0 10D#AD3007FC0000
(0000000145.913390) vcan0 0F5#7D043BFFD7F800C8
(0000000145.913617) vcan0 0FB#00F07D00
(0000000145.918393) vcan0 0F6#FF640030000FFC00
(0000000145.918688) vcan0 37E#410400C001C988FF
(0000000145.918951) vcan0 10D#A54007FC0000
(0000000145.923399) vcan0 0F5#7D0558FFD7F800D0
(0000000145.923640) vcan0 0FB#00F07D00
(0000000145.928405) vcan0 0F6#FF640030000FFC00
(0000000145.928653) vcan0 10D#1C5007FC0000
(0000000145.933398) vcan0 0F5#7D0692FFD7F800D0
(0000000145.933623) vcan0 0FB#00F07D00
(0000000145.933900) vcan0 383#9800FF0000140000
(0000000145.934182) vcan0 466#14B99EA25F34FEB2
(0000000145.938403) vcan0 0F6#FF640030000FFC00
(0000000145.938661) vcan0 10D#CA6007FC0000
(0000000145.943399) vcan0 0F5#7D07D4FFD7F800D0
(0000000145.943617) vcan0 0FB#00F07D00
(0000000145.948383) vcan0 0F6#FF640030000FFC00
(0000000145.948643) vcan0 10D#737007FC0000
(0000000145.953385) vcan0 0F5#7D0811FFD7F800D0
(0000000145.953615) vcan0 0FB#00F07D00
(0000000145.958383) vcan0 0F6#FF640030000FFC00
(0000000145.958651) vcan0 10D#DA8007FC0000
(0000000145.963374) vcan0 0F5#7D0957FFD7F800D0
(0000000145.963542) vcan0 0FB#00F07D00
(0000000145.968385) vcan0 0F6#FF640030000FFC00
(0000000145.968643) vcan0 10D#639007FC0000
(0000000145.973373) vcan0 0F5#7D0AB8FFD7F800C8
(0000000145.973544) vcan0 0FB#00F07D00
(0000000145.978379) vcan0 0F6#FF640030000FFC00
(0000000145.978645) vcan0 10D#B5A007FC0000
(0000000145.983380) vcan0 0F5#7D0BFEFFD7F800C8
(0000000145.983546) vcan0 0FB#00F07D00
(0000000145.988395) vcan0 0F6#FF640030000FFC00
(0000000145.988647) vcan0 10D#0CB007FC0000
(0000000145.993377) vcan0 0F5#7D0C14FFD7F800D0
(0000000145.993546) vcan0 0FB#00F07D00
(0000000145.998383) vcan0 0F6#FF640030000FFC00
(0000000145.998641) vcan0 10D#04C007FC0000
(0000000146.003391) vcan0 0F5#7D0D52FFD7F800D0
(0000000146.003549) vcan0 0FB#00F07D00
(0000000146.008385) vcan0 0F6#FF640030000FFC00
(0000000146.008647) vcan0 10D#BDD007FC0000
(0000000146.013367) vcan0 0F5#7D0EBDFFD7F800C8
(0000000146.013548) vcan0 0FB#00F07D00
(0000000146.018383) vcan0 0F6#FF640030000FFC00
(0000000146.018680) vcan0 37E#410400C001C988FF
(0000000146.018942) vcan0 10D#6BE007FC0000
(0000000146.023381) vcan0 0F5#7D0FFBFFD7F800C8
(0000000146.023547) vcan0 0FB#00F07D00
(0000000146.028377) vcan0 0F6#FF640030000FFC00
(0000000146.028641) vcan0 10D#D2F007FC0000
(0000000146.033397) vcan0 0F5#7D001BFFD7F800D0
(0000000146.033549) vcan0 0FB#00F07D00
(0000000146.033795) vcan0 383#9800FF0000140000
(0000000146.034097) vcan0 466#14F8685CCA41E24A
(0000000146.038400) vcan0 0F6#FF640030000FFC00
(0000000146.038605) vcan0 10D#7B0007FC0000
(0000000146.043382) vcan0 0F5#7D015DFFD7F800D0
(0000000146.043544) vcan0 0FB#00F07D00
(0000000146.048379) vcan0 0F6#FF640030000FFC00
(0000000146.048590) vcan0 10D#C21007FC0000
(0000000146.053375) vcan0 0F5#7D02B2FFD7F800C8
(0000000146.053548) vcan0 0FB#00F07D00
(0000000146.058323) vcan0 0F6#FF640030000FFC00
(0000000146.058535) vcan0 10D#142007FC0000
(0000000146.063373) vcan0 0F5#7D039BFFD7F800E0
(0000000146.063542) vcan0 0FB#00F07D00
(0000000146.068322) vcan0 0F6#FF640030000FFC00
(0000000146.068537) vcan0 10D#AD3007FC0000
(0000000146.073371) vcan0 0F5#7D043BFFD7F800C8
(0000000146.073537) vcan0 0FB#00F07D00
(0000000146.078321) vcan0 0F6#FF640030000FFC00
(0000000146.078534) vcan0 10D#A54007FC0000
(0000000146.083380) vcan0 0F5#7D057DFFD7F800C8
(0000000146.083553) vcan0 0FB#00F07D00
(0000000146.088331) vcan0 0F6#FF640030000FFC00
(0000000146.088531) vcan0 10D#1C5007FC0000
(0000000146.093368) vcan0 0F5#7D06D8FFD7F800E0
(0000000146.093538) vcan0 0FB#00F07D00
(0000000146.098340) vcan0 0F6#FF640030000FFC00
(0000000146.098557) vcan0 10D#CA6007FC0000
(0000000146.103326) vcan0 0F5#7D07D4FFD7F800D0
(0000000146.103508) vcan0 0FB#00F07D00
(0000000146.108326) vcan0 0F6#FF640030000FFC00
(0000000146.108533) vcan0 10D#737007FC0000
(0000000146.113318) vcan0 0F5#7D0834FFD7F800C8
(0000000146.113511) vcan0 0FB#00F07D00
(0000000146.118324) vcan0 0F6#FF640030000FFC00
(0000000146.118571) vcan0 37E#410400C001D388FF
(0000000146.118840) vcan0 10D#DA8007FC0000
(0000000146.123309) vcan0 0F5#7D0957FFD7F800D0
(0000000146.123495) vcan0 0FB#01187D00
(0000000146.128322) vcan0 0F6#FF640030000FFC00
(0000000146.128532) vcan0 10D#639007FC0000
(0000000146.133306) vcan0 0F5#7D0AB8FFD7F800C8
(0000000146.133495) vcan0 0FB#01187D00
(0000000146.133778) vcan0 383#9800FF0000140000
(0000000146.134069) vcan0 466#14383216364EC6E1
(0000000146.138322) vcan0 0F6#FF640030000FFC00
(0000000146.138543) vcan0 10D#B5A007FC0000
(0000000146.143313) vcan0 0F5#7D0BFEFFD7F800C8
(0000000146.143497) vcan0 0FB#01187D00
(0000000146.143644) vcan0 384#00
(0000000146.148318) vcan0 0F6#FF640030000FFC00
(0000000146.148541) vcan0 10D#0CB007FC0000
(0000000146.153310) vcan0 0F5#7D0C14FFD7F800D0
(0000000146.153500) vcan0 0FB#01187D00
(0000000146.158373) vcan0 0F6#FF640030000FFC00
(0000000146.158638) vcan0 10D#04C007FC0000
(0000000146.163324) vcan0 0F5#7D0D52FFD7F800D0
(0000000146.163494) vcan0 0FB#01187D00
(0000000146.168318) vcan0 0F6#FF640030000FFC00
(0000000146.168531) vcan0 10D#BDD007FC0000
(0000000146.173308) vcan0 0F5#7D0E98FFD7F800D0
(0000000146.173497) vcan0 0FB#01187D00
(0000000146.178339) vcan0 0F6#FF640030000FFC00
(0000000146.178539) vcan0 10D#6BE007FC0000
(0000000146.183317) vcan0 0F5#7D0FDEFFD7F800D0
(0000000146.183496) vcan0 0FB#01187D00
(0000000146.188318) vcan0 0F6#FF640030000FFC00
(0000000146.188540) vcan0 10D#D2F007FC0000
(0000000146.193307) vcan0 0F5#7D003EFFD7F800C8
(0000000146.193491) vcan0 0FB#01187D00
(0000000146.198314) vcan0 0F6#FF640030000FFC00
(0000000146.198535) vcan0 10D#7B0007FC0000
(0000000146.203308) vcan0 0F5#7D015DFFD7F800D0
(0000000146.203496) vcan0 0FB#01187D00
(0000000146.208315) vcan0 0F6#FF640030000FFC00
(0000000146.208543) vcan0 10D#C21007FC0000
(0000000146.213326) vcan0 0F5#7D0297FFD7F800D0
(0000000146.213495) vcan0 0FB#01187D00
(0000000146.218317) vcan0 0F6#FF640030000FFC00
(0000000146.218566) vcan0 37E#410400C001C988FF
(0000000146.218787) vcan0 10D#142007FC0000
(0000000146.223312) vcan0 0F5#7D03D1FFD7F800D0
(0000000146.223499) vcan0 0FB#00F07D00
(0000000146.228313) vcan0 0F6#FF640030000FFC00
(0000000146.228528) vcan0 10D#AD3007FC0000
(0000000146.233310) vcan0 0F5#7D043BFFD7F800C8
(0000000146.233512) vcan0 0FB#00F07D00
(0000000146.233773) vcan0 383#9800FF0000140000
(0000000146.234073) vcan0 466#1477FBCFA15BAA79
(0000000146.238318) vcan0 0F6#FF640030000FFC00
(0000000146.238534) vcan0 10D#A54007FC0000
(0000000146.243311) vcan0 0F5#7D0512FFD7F800E0
(0000000146.243503) vcan0 0FB#00F07D00
(0000000146.248313) vcan0 0F6#FF640030000FFC00
(0000000146.248531) vcan0 10D#1C5007FC0000
(0000000146.253302) vcan0 0F5#7D0692FFD7F800D0
(0000000146.253497) vcan0 0FB#00F07D00
(0000000146.258309) vcan0 0F6#FF640030000FFC00
(0000000146.258539) vcan0 10D#CA6007FC0000
(0000000146.263303) vcan0 0F5#7D07F1FFD7F800C8
(0000000146.263496) vcan0 0FB#00F07D00
(0000000146.268309) vcan0 0F6#FF640030000FFC00
(0000000146.268527) vcan0 10D#737007FC0000
(0000000146.273302) vcan0 0F5#7D0811FFD7F800D0
(0000000146.273497) vcan0 0FB#00F07D00
(0000000146.278313) vcan0 0F6#FF640030000FFC00
(0000000146.278534) vcan0 10D#DA8007FC0000
(0000000146.283299) vcan0 0F5#7D0957FFD7F800D0
(0000000146.283505) vcan0 0FB#00F07D00
(0000000146.288313) vcan0 0F6#FF640030000FFC00
(0000000146.288528) vcan0 10D#639007FC0000
(0000000146.293300) vcan0 0F5#7D0AB8FFD7F800C8
(0000000146.293526) vcan0 0FB#00F07D00
(0000000146.298316) vcan0 0F6#FF640030000FFC00
(0000000146.298550) vcan0 10D#B5A007FC0000
(0000000146.303301) vcan0 0F5#7D0BDBFFD7F800D0
(0000000146.303500) vcan0 0FB#00F07D00
(0000000146.308320) vcan0 0F6#FF640030000FFC00
(0000000146.308528) vcan0 10D#0CB007FC0000
(0000000146.313300) vcan0 0F5#7D0C14FFD7F800D0
(0000000146.313496) vcan0 0FB#00F07D00
(0000000146.318305) vcan0 0F6#FF640030000FFC00
(0000000146.318568) vcan0 37E#410400C001C988FF
(0000000146.318831) vcan0 10D#04C007FC0000
(0000000146.323302) vcan0 0F5#7D0D52FFD7F800D0
(0000000146.323515) vcan0 0FB#01187D00
(0000000146.328308) vcan0 0F6#FF640030000FFC00
(0000000146.328526) vcan0 10D#BDD007FC0000
(0000000146.333312) vcan0 0F5#7D0E98FFD7F800D0
(0000000146.333485) vcan0 0FB#01187D00
(0000000146.333788) vcan0 383#9800FF0000140000
(0000000146.334059) vcan0 466#14B6C5890D688E11
(0000000146.338329) vcan0 0F6#FF640030000FFC00
(0000000146.338527) vcan0 10D#6BE007FC0000
(0000000146.343304) vcan0 0F5#7D0FDEFFD7F800D0
(0000000146.343509) vcan0 0FB#01187D00
(0000000146.348313) vcan0 0F6#FF640030000FFC00
(0000000146.348536) vcan0 10D#D2F007FC0000
(0000000146.353305) vcan0 0F5#7D003EFFD7F800C8
(0000000146.353496) vcan0 0FB#01187D00
(0000000146.358319) vcan0 0F6#FF640030000FFC00
(0000000146.358537) vcan0 10D#7B0007FC0000
(0000000146.363312) vcan0 0F5#7D015DFFD7F800D0
(0000000146.363522) vcan0 0FB#01187D00
(0000000146.368313) vcan0 0F6#FF640030000FFC00
(0000000146.368542) vcan0 10D#C21007FC0000
(0000000146.373304) vcan0 0F5#7D0297FFD7F800D0
(0000000146.373497) vcan0 0FB#01187D00
(0000000146.378311) vcan0 0F6#FF640030000FFC00
(0000000146.378540) vcan0 10D#142007FC0000
(0000000146.383309) vcan0 0F5#7D03D1FFD7F800D0
(0000000146.383496) vcan0 0FB#01187D00
(0000000146.388313) vcan0 0F6#FF640030000FFC00
(0000000146.388547) vcan0 10D#AD3007FC0000
(0000000146.393307) vcan0 0F5#7D041EFFD7F800D0
(0000000146.393494) vcan0 0FB#01187D00
(0000000146.398311) vcan0 0F6#FF640030000FFC00
(0000000146.398535) vcan0 10D#A54007FC0000
(0000000146.403321) vcan0 0F5#7D057DFFD7F800C8
(0000000146.403501) vcan0 0FB#01187D00
(0000000146.408319) vcan0 0F6#FF640030000FFC00
(0000000146.408534) vcan0 10D#1C5007FC0000
(0000000146.413303) vcan0 0F5#7D06B7FFD7F800C8
(0000000146.413498) vcan0 0FB#01187D00
(0000000146.418310) vcan0 0F6#FF640030000FFC00
(0000000146.418580) vcan0 37E#410400C001D388FF
(0000000146.418846) vcan0 10D#CA6007FC0000
(0000000146.423309) vcan0 0F5#7D079EFFD7F800E0
(0000000146.423501) vcan0 0FB#00F07D00
(0000000146.428311) vcan0 0F6#FF640030000FFC00
(0000000146.428540) vcan0 10D#737007FC0000
(0000000146.433299) vcan0 0F5#7D0811FFD7F800D0
(0000000146.433515) vcan0 0FB#00F07D00
(0000000146.433773) vcan0 383#9800FF0000140000
(0000000146.434063) vcan0 466#14F58F43787572A8
(0000000146.438314) vcan0 0F6#FF640030000FFC00
(0000000146.438543) vcan0 10D#DA8007FC0000
(0000000146.443317) vcan0 0F5#7D0972FFD7F800C8
(0000000146.443502) vcan0 0FB#00F07D00
(0000000146.448309) vcan0 0F6#FF640030000FFC00
(0000000146.448521) vcan0 10D#639007FC0000
(0000000146.453288) vcan0 0F5#7D0A9DFFD7F800D0
(0000000146.453501) vcan0 0FB#00F07D00
(0000000146.458295) vcan0 0F6#FF640030000FFC00
(0000000146.458525) vcan0 10D#B5A007FC0000
(0000000146.463283) vcan0 0F5#7D0BFEFFD7F800C8
(0000000146.463489) vcan0 0FB#00F07D00
(0000000146.468318) vcan0 0F6#FF640030000FFC00
(0000000146.468522) vcan0 10D#0CB007FC0000
(0000000146.473292) vcan0 0F5#7D0C31FFD7F800C8
(0000000146.473494) vcan0 0FB#00F07D00
(0000000146.478296) vcan0 0F6#FF640030000FFC00
(0000000146.478525) vcan0 10D#04C007FC0000
(0000000146.483283) vcan0 0F5#7D0D52FFD7F800D0
(0000000146.483488) vcan0 0FB#00F07D00
(0000000146.488292) vcan0 0F6#FF640030000FFC00
(0000000146.488526) vcan0 10D#BDD007FC0000
(0000000146.493277) vcan0 0F5#7D0E98FFD7F800D0
(0000000146.493489) vcan0 0FB#00F07D00
(0000000146.498322) vcan0 0F6#FF640030000FFC00
(0000000146.498528) vcan0 10D#6BE007FC0000
(0000000146.503292) vcan0 0F5#7D0FFBFFD7F800C8
(0000000146.503510) vcan0 0FB#00F07D00
(0000000146.508288) vcan0 0F6#FF640030000FFC00
(0000000146.508530) vcan0 10D#D2F007FC0000
(0000000146.513285) vcan0 0F5#7D001BFFD7F800D0
(0000000146.513486) vcan0 0FB#00F07D00
(0000000146.518288) vcan0 0F6#FF640030000FFC00
(0000000146.518559) vcan0 37E#410400C001D388FF
(0000000146.518760) vcan0 10D#7B0007FC0000
(0000000146.523281) vcan0 0F5#7D015DFFD7F800D0
(0000000146.523486) vcan0 0FB#00F07D00
(0000000146.528287) vcan0 0F6#FF640030000FFC00
(0000000146.528532) vcan0 10D#C21007FC0000
(0000000146.533286) vcan0 0F5#7D02B2FFD7F800C8
(0000000146.533518) vcan0 0FB#00F07D00
(0000000146.533761) vcan0 383#9800FF0000140000
(0000000146.534052) vcan0 466#143559FCE3825640
(0000000146.538295) vcan0 0F6#FF640030000FFC00
(0000000146.538526) vcan0 10D#142007FC0000
(0000000146.543280) vcan0 0F5#7D03D1FFD7F800D0
(0000000146.543489) vcan0 0FB#00F07D00
(0000000146.548317) vcan0 0F6#FF640030000FFC00
(0000000146.548527) vcan0 10D#AD3007FC0000
(0000000146.553304) vcan0 0F5#7D041EFFD7F800D0
(0000000146.553498) vcan0 0FB#00F07D00
(0000000146.558299) vcan0 0F6#FF640030000FFC00
(0000000146.558533) vcan0 10D#A54007FC0000
(0000000146.563295) vcan0 0F5#7D0558FFD7F800D0
(0000000146.563496) vcan0 0FB#00F07D00
(0000000146.568298) vcan0 0F6#FF640030000FFC00
(0000000146.568533) vcan0 10D#1C5007FC0000
(0000000146.573302) vcan0 0F5#7D0692FFD7F800D0
(0000000146.573517) vcan0 0FB#00F07D00
(0000000146.578327) vcan0 0F6#FF640030000FFC00
(0000000146.578533) vcan0 10D#CA6007FC0000
(0000000146.583325) vcan0 0F5#7D07F1FFD7F800C8
(0000000146.583506) vcan0 0FB#00F07D00
(0000000146.588328) vcan0 0F6#FF640030000FFC00
(0000000146.588535) vcan0 10D#737007FC0000
(0000000146.593329) vcan0 0F5#7D0811FFD7F800D0
(0000000146.593500) vcan0 0FB#00F07D00
(0000000146.598328) vcan0 0F6#FF640030000FFC00
(0000000146.598536) vcan0 10D#DA8007FC0000
(0000000146.603331) vcan0 0F5#7D0957FFD7F800D0
(0000000146.603489) vcan0 0FB#00F07D00
(0000000146.608331) vcan0 0F6#FF640030000FFC00
(0000000146.608523) vcan0 10D#639007FC0000
(0000000146.613323) vcan0 0F5#7D0AB8FFD7F800C8
(0000000146.613517) vcan0 0FB#00F07D00
(0000000146.618302) vcan0 0F6#FF640030000FFC00
(0000000146.618562) vcan0 37E#410400C001D388FF
(0000000146.618769) vcan0 10D#B5A007FC0000
(0000000146.623288) vcan0 0F5#7D0BFEFFD7F800C8
(0000000146.623497) vcan0 0FB#00F07D00
(0000000146.628305) vcan0 0F6#FF640030000FFC00
(0000000146.628523) vcan0 10D#0CB007FC0000
(0000000146.633279) vcan0 0F5#7D0C14FFD7F800D0
(0000000146.633488) vcan0 0FB#00F07D00
(0000000146.633805) vcan0 383#9800FF0000140000
(0000000146.634064) vcan0 466#147423B64F8F3AD7
(0000000146.638289) vcan0 0F6#FF640030000FFC00
(0000000146.638524) vcan0 10D#04C007FC0000
(0000000146.643279) vcan0 0F5#7D0D52FFD7F800D0
(0000000146.643489) vcan0 0FB#00F07D00
(0000000146.643631) vcan0 384#00
(0000000146.648269) vcan0 0F6#FF640030000FFC00
(0000000146.648505) vcan0 10D#BDD007FC0000
(0000000146.653256) vcan0 0F5#7D0E98FFD7F800D0
(0000000146.653476) vcan0 0FB#00F07D00
(0000000146.658270) vcan0 0F6#FF640030000FFC00
(0000000146.658513) vcan0 10D#6BE007FC0000
(0000000146.658645) vcan0 66E#303A
(0000000146.663268) vcan0 0F5#7D0FDEFFD7F800D0
(0000000146.663480) vcan0 0FB#00F07D00
(0000000146.668271) vcan0 0F6#FF640030000FFC00
(0000000146.668510) vcan0 10D#D2F007FC0000
(0000000146.673280) vcan0 0F5#7D001BFFD7F800D0
(0000000146.673476) vcan0 0FB#00F07D00
(0000000146.678273) vcan0 0F6#FF640030000FFC00
(0000000146.678508) vcan0 10D#7B0007FC0000
(0000000146.683272) vcan0 0F5#7D0178FFD7F800C8
(0000000146.683479) vcan0 0FB#00F07D00
(0000000146.688286) vcan0 0F6#FF640030000FFC00
(0000000146.688515) vcan0 10D#C21007FC0000
(0000000146.693271) vcan0 0F5#7D02DDFFD7F800E0
(0000000146.693475) vcan0 0FB#00F07D00
(0000000146.698264) vcan0 0F6#FF640030000FFC00
(0000000146.698508) vcan0 10D#142007FC0000
(0000000146.703257) vcan0 0F5#7D03D1FFD7F800D0
(0000000146.703476) vcan0 0FB#00F07D00
(0000000146.708267) vcan0 0F6#FF640030000FFC00
(0000000146.708504) vcan0 10D#AD3007FC0000
(0000000146.713262) vcan0 0F5#7D043BFFD7F800C8
(0000000146.713475) vcan0 0FB#00F07D00
(0000000146.718262) vcan0 0F6#FF640030000FFC00
(0000000146.718540) vcan0 37E#410400C001D388FF
(0000000146.718746) vcan0 10D#A54007FC0000
(0000000146.723257) vcan0 0F5#7D0558FFD7F800D0
(0000000146.723472) vcan0 0FB#01187D00
(0000000146.728261) vcan0 0F6#FF640030000FFC00
(0000000146.728503) vcan0 10D#1C5007FC0000
(0000000146.733254) vcan0 0F5#7D06B7FFD7F800C8
(0000000146.733469) vcan0 0FB#01187D00
(0000000146.733747) vcan0 383#9800FF0000140000
(0000000146.734042) vcan0 466#14B3EC70BA9C1E6F
(0000000146.738264) vcan0 0F6#FF640030000FFC00
(0000000146.738511) vcan0 10D#CA6007FC0000
(0000000146.743258) vcan0 0F5#7D07F1FFD7F800C8
(0000000146.743468) vcan0 0FB#01187D00
(0000000146.748280) vcan0 0F6#FF640030000FFC00
(0000000146.748538) vcan0 10D#737007FC0000
(0000000146.753298) vcan0 0F5#7D0811FFD7F800D0
(0000000146.753484) vcan0 0FB#01187D00
(0000000146.758287) vcan0 0F6#FF640030000FFC00
(0000000146.758529) vcan0 10D#DA8007FC0000
(0000000146.763267) vcan0 0F5#7D0957FFD7F800D0
(0000000146.763482) vcan0 0FB#01187D00
(0000000146.768297) vcan0 0F6#FF640030000FFC00
(0000000146.768521) vcan0 10D#639007FC0000
(0000000146.773274) vcan0 0F5#7D0A9DFFD7F800D0
(0000000146.773486) vcan0 0FB#01187D00
(0000000146.778286) vcan0 0F6#FF640030000FFC00
(0000000146.778524) vcan0 10D#B5A007FC0000
(0000000146.783269) vcan0 0F5#7D0BDBFFD7F800D0
(0000000146.783481) vcan0 0FB#01187D00
(0000000146.788282) vcan0 0F6#FF640030000FFC00
(0000000146.788524) vcan0 10D#0CB007FC0000
(0000000146.793266) vcan0 0F5#7D0C14FFD7F800D0
(0000000146.793482) vcan0 0FB#01187D00
(0000000146.798301) vcan0 0F6#FF640030000FFC00
(0000000146.798523) vcan0 10D#04C007FC0000
(0000000146.803298) vcan0 0F5#7D0D52FFD7F800D0
(0000000146.803478) vcan0 0FB#01187D00
(0000000146.808279) vcan0 0F6#FF640030000FFC00
(0000000146.808523) vcan0 10D#BDD007FC0000
(0000000146.813263) vcan0 0F5#7D0ED2FFD7F800E0
(0000000146.813483) vcan0 0FB#01187D00
(0000000146.818273) vcan0 0F6#FF640030000FFC00
(0000000146.818555) vcan0 37E#410400C001C988FF
(0000000146.818762) vcan0 10D#6BE007FC0000
(0000000146.823270) vcan0 0F5#7D0FDEFFD7F800D0
(0000000146.823488) vcan0 0FB#00F07D00
(0000000146.828272) vcan0 0F6#FF640030000FFC00
(0000000146.828523) vcan0 10D#D2F007FC0000
(0000000146.833269) vcan0 0F5#7D003EFFD7F800C8
(0000000146.833486) vcan0 0FB#00F07D00
(0000000146.833759) vcan0 383#9800FF0000140000
(0000000146.834053) vcan0 466#14F2B62A26A90207
(0000000146.838277) vcan0 0F6#FF640030000FFC00
(0000000146.838520) vcan0 10D#7B0007FC0000
(0000000146.843264) vcan0 0F5#7D015DFFD7F800D0
(0000000146.843490) vcan0 0FB#00F07D00
(0000000146.848290) vcan0 0F6#FF640030000FFC00
(0000000146.848526) vcan0 10D#C21007FC0000
(0000000146.853283) vcan0 0F5#7D0297FFD7F800D0
(0000000146.853492) vcan0 0FB#00F07D00
(0000000146.858285) vcan0 0F6#FF640030000FFC00
(0000000146.858525) vcan0 10D#142007FC0000
(0000000146.863265) vcan0 0F5#7D03D1FFD7F800D0
(0000000146.863488) vcan0 0FB#00F07D00
(0000000146.868277) vcan0 0F6#FF640030000FFC00
(0000000146.868521) vcan0 10D#AD3007FC0000
(0000000146.873274) vcan0 0F5#7D041EFFD7F800D0
(0000000146.873487) vcan0 0FB#00F07D00
(0000000146.878270) vcan0 0F6#FF640030000FFC00
(0000000146.878519) vcan0 10D#A54007FC0000
(0000000146.883266) vcan0 0F5#7D0558FFD7F800D0
(0000000146.883486) vcan0 0FB#00F07D00
(0000000146.888277) vcan0 0F6#FF640030000FFC00
(0000000146.888521) vcan0 10D#1C5007FC0000
(0000000146.893264) vcan0 0F5#7D0692FFD7F800D0
(0000000146.893484) vcan0 0FB#00F07D00
(0000000146.898293) vcan0 0F6#FF640030000FFC00
(0000000146.898526) vcan0 10D#CA6007FC0000
(0000000146.903268) vcan0 0F5#7D07D4FFD7F800D0
(0000000146.903486) vcan0 0FB#00F07D00
(0000000146.908281) vcan0 0F6#FF640030000FFC00
(0000000146.908519) vcan0 10D#737007FC0000
(0000000146.913267) vcan0 0F5#7D0811FFD7F800D0
(0000000146.913482) vcan0 0FB#00F07D00
(0000000146.918268) vcan0 0F6#FF640030000FFC00
(0000000146.918557) vcan0 37E#410400C001D388FF
(0000000146.918753) vcan0 10D#DA8007FC0000
(0000000146.923256) vcan0 0F5#7D0957FFD7F800D0
(0000000146.923474) vcan0 0FB#00F07D00
(0000000146.928290) vcan0 0F6#FF640030000FFC00
(0000000146.928513) vcan0 10D#639007FC0000
(0000000146.933259) vcan0 0F5#7D0AD7FFD7F800E0
(0000000146.933479) vcan0 0FB#00F07D00
(0000000146.933780) vcan0 383#9800FF0000140000
(0000000146.934042) vcan0 466#143280E391B6E59E
(0000000146.938272) vcan0 0F6#FF640030000FFC00
(0000000146.938516) vcan0 10D#B5A007FC0000
(0000000146.943259) vcan0 0F5#7D0BDBFFD7F800D0
(0000000146.943481) vcan0 0FB#00F07D00
(0000000146.948271) vcan0 0F6#FF640030000FFC00
(0000000146.948515) vcan0 10D#0CB007FC0000
(0000000146.953256) vcan0 0F5#7D0C14FFD7F800D0
(0000000146.953483) vcan0 0FB#00F07D00
(0000000146.958285) vcan0 0F6#FF640030000FFC00
(0000000146.958515) vcan0 10D#04C007FC0000
(0000000146.963269) vcan0 0F5#7D0D18FFD7F800E0
(0000000146.963489) vcan0 0FB#00F07D00
(0000000146.968271) vcan0 0F6#FF640030000FFC00
(0000000146.968520) vcan0 10D#BDD007FC0000
(0000000146.973259) vcan0 0F5#7D0E98FFD7F800D0
(0000000146.973475) vcan0 0FB#00F07D00
(0000000146.978267) vcan0 0F6#FF640030000FFC00
(0000000146.978525) vcan0 10D#6BE007FC0000
(0000000146.983263) vcan0 0F5#7D0FFBFFD7F800C8
(0000000146.983479) vcan0 0FB#00F07D00
(0000000146.988269) vcan0 0F6#FF640030000FFC00
(0000000146.988512) vcan0 10D#D2F007FC0000
(0000000146.993276) vcan0 0F5#7D001BFFD7F800D0
(0000000146.993498) vcan0 0FB#00F07D00
(0000000146.998268) vcan0 0F6#FF640030000FFC00
(0000000146.998514) vcan0 10D#7B0007FC0000
(0000000147.003265) vcan0 0F5#7D015DFFD7F800D0
(0000000147.003484) vcan0 0FB#00F07D00
(0000000147.008270) vcan0 0F6#FF640030000FFC00
(0000000147.008516) vcan0 10D#C21007FC0000
(0000000147.013265) vcan0 0F5#7D02B2FFD7F800C8
(0000000147.013480) vcan0 0FB#00F07D00
(0000000147.018267) vcan0 0F6#FF640030000FFC00
(0000000147.018549) vcan0 37E#410400C001D388FF
(0000000147.018811) vcan0 10D#142007FC0000
(0000000147.023265) vcan0 0F5#7D03D1FFD7F800D0
(0000000147.023496) vcan0 0FB#01187D00
(0000000147.028271) vcan0 0F6#FF640030000FFC00
(0000000147.028511) vcan0 10D#AD3007FC0000
(0000000147.033262) vcan0 0F5#7D041EFFD7F800D0
(0000000147.033476) vcan0 0FB#01187D00
(0000000147.033757) vcan0 383#9800FF0000140000
(0000000147.034050) vcan0 466#14714A9DFCC3C936
(0000000147.038272) vcan0 0F6#FF640030000FFC00
(0000000147.038509) vcan0 10D#A54007FC0000
(0000000147.043267) vcan0 0F5#7D0558FFD7F800D0
(0000000147.043476) vcan0 0FB#01187D00
(0000000147.048267) vcan0 0F6#FF640030000FFC00
(0000000147.048523) vcan0 10D#1C5007FC0000
(0000000147.053250) vcan0 0F5#7D0692FFD7F800D0
(0000000147.053473) vcan0 0FB#01187D00
(0000000147.058276) vcan0 0F6#FF640030000FFC00
(0000000147.058508) vcan0 10D#CA6007FC0000
(0000000147.063268) vcan0 0F5#7D07F1FFD7F800C8
(0000000147.063471) vcan0 0FB#01187D00
(0000000147.068257) vcan0 0F6#FF640030000FFC00
(0000000147.068501) vcan0 10D#737007FC0000
(0000000147.073251) vcan0 0F5#7D0834FFD7F800C8
(0000000147.073460) vcan0 0FB#01187D00
(0000000147.078258) vcan0 0F6#FF640030000FFC00
(0000000147.078510) vcan0 10D#DA8007FC0000
(0000000147.083242) vcan0 0F5#7D0957FFD7F800D0
(0000000147.083471) vcan0 0FB#01187D00
(0000000147.088277) vcan0 0F6#FF640030000FFC00
(0000000147.088510) vcan0 10D#639007FC0000
(0000000147.093246) vcan0 0F5#7D0A9DFFD7F800D0
(0000000147.093462) vcan0 0FB#01187D00
(0000000147.098253) vcan0 0F6#FF640030000FFC00
(0000000147.098513) vcan0 10D#B5A007FC0000
(0000000147.103244) vcan0 0F5#7D0BDBFFD7F800D0
(0000000147.103459) vcan0 0FB#01187D00
(0000000147.108253) vcan0 0F6#FF640030000FFC00
(0000000147.108500) vcan0 10D#0CB007FC0000
(0000000147.113249) vcan0 0F5#7D0C5EFFD7F800E0
(0000000147.113462) vcan0 0FB#01187D00
(0000000147.118254) vcan0 0F6#FF640030000FFC00
(0000000147.118531) vcan0 37E#410400C001C988FF
(0000000147.118745) vcan0 10D#04C007FC0000
(0000000147.123247) vcan0 0F5#7D0D52FFD7F800D0
(0000000147.123477) vcan0 0FB#00F07D00
(0000000147.128245) vcan0 0F6#FF640030000FFC00
(0000000147.128549) vcan0 10D#BDD007FC0000
(0000000147.133241) vcan0 0F5#7D0EBDFFD7F800C8
(0000000147.133462) vcan0 0FB#00F07D00
(0000000147.133750) vcan0 383#9800FF0000140000
(0000000147.134029) vcan0 466#14B0145768D0ADCD
(0000000147.138253) vcan0 0F6#FF640030000FFC00
(0000000147.138503) vcan0 10D#6BE007FC0000
(0000000147.143240) vcan0 0F5#7D0FDEFFD7F800D0
(0000000147.143473) vcan0 0FB#00F07D00
(0000000147.143651) vcan0 384#00
(0000000147.148252) vcan0 0F6#FF640030000FFC00
(0000000147.148500) vcan0 10D#D2F007FC0000
(0000000147.153254) vcan0 0F5#7D001BFFD7F800D0
(0000000147.153467) vcan0 0FB#00F07D00
(0000000147.158254) vcan0 0F6#FF640030000FFC00
(0000000147.158507) vcan0 10D#7B0007FC0000
(0000000147.163244) vcan0 0F5#7D015DFFD7F800D0
(0000000147.163472) vcan0 0FB#00F07D00
(0000000147.168267) vcan0 0F6#FF640030000FFC00
(0000000147.168504) vcan0 10D#C21007FC0000
(0000000147.173250) vcan0 0F5#7D0297FFD7F800D0
(0000000147.173458) vcan0 0FB#00F07D00
(0000000147.178253) vcan0 0F6#FF640030000FFC00
(0000000147.178498) vcan0 10D#142007FC0000
(0000000147.183271) vcan0 0F5#7D03F4FFD7F800C8
(0000000147.183470) vcan0 0FB#00F07D00
(0000000147.188256) vcan0 0F6#FF640030000FFC00
(0000000147.188495) vcan0 10D#AD3007FC0000
(0000000147.193247) vcan0 0F5#7D041EFFD7F800D0
(0000000147.193463) vcan0 0FB#00F07D00
(0000000147.198250) vcan0 0F6#FF640030000FFC00
(0000000147.198498) vcan0 10D#A54007FC0000
(0000000147.203243) vcan0 0F5#7D0558FFD7F800D0
(0000000147.203469) vcan0 0FB#00F07D00
(0000000147.208251) vcan0 0F6#FF640030000FFC00
(0000000147.208504) vcan0 10D#1C5007FC0000
(0000000147.213242) vcan0 0F5#7D0692FFD7F800D0
(0000000147.213460) vcan0 0FB#00F07D00
(0000000147.218268) vcan0 0F6#FF640030000FFC00
(0000000147.218531) vcan0 37E#410400C001D388FF
(0000000147.218736) vcan0 10D#CA6007FC0000
(0000000147.223243) vcan0 0F5#7D07F1FFD7F800C8
(0000000147.223464) vcan0 0FB#01187D00
(0000000147.228251) vcan0 0F6#FF640030000FFC00
(0000000147.228499) vcan0 10D#737007FC0000
(0000000147.233242) vcan0 0F5#7D0811FFD7F800D0
(0000000147.233462) vcan0 0FB#01187D00
(0000000147.233733) vcan0 383#9800FF0000140000
(0000000147.234027) vcan0 466#14EFDD11D3DD9165
(0000000147.238250) vcan0 0F6#FF640030000FFC00
(0000000147.238506) vcan0 10D#DA8007FC0000
(0000000147.243236) vcan0 0F5#7D0957FFD7F800D0
(0000000147.243448) vcan0 0FB#01187D00
(0000000147.248260) vcan0 0F6#FF640030000FFC00
(0000000147.248496) vcan0 10D#639007FC0000
(0000000147.253244) vcan0 0F5#7D0AB8FFD7F800C8
(0000000147.253457) vcan0 0FB#01187D00
(0000000147.258255) vcan0 0F6#FF640030000FFC00
(0000000147.258502) vcan0 10D#B5A007FC0000
(0000000147.263272) vcan0 0F5#7D0BDBFFD7F800D0
(0000000147.263463) vcan0 0FB#01187D00
(0000000147.268260) vcan0 0F6#FF640030000FFC00
(0000000147.268515) vcan0 10D#0CB007FC0000
(0000000147.273246) vcan0 0F5#7D0C14FFD7F800D0
(0000000147.273457) vcan0 0FB#01187D00
(0000000147.278275) vcan0 0F6#FF640030000FFC00
(0000000147.278514) vcan0 10D#04C007FC0000
(0000000147.283257) vcan0 0F5#7D0D77FFD7F800C8
(0000000147.283470) vcan0 0FB#01187D00
(0000000147.288253) vcan0 0F6#FF640030000FFC00
(0000000147.288497) vcan0 10D#BDD007FC0000
(0000000147.293247) vcan0 0F5#7D0ED2FFD7F800E0
(0000000147.293460) vcan0 0FB#01187D00
(0000000147.298266) vcan0 0F6#FF640030000FFC00
(0000000147.298512) vcan0 10D#6BE007FC0000
(0000000147.303251) vcan0 0F5#7D0FDEFFD7F800D0
(0000000147.303463) vcan0 0FB#01187D00
(0000000147.308254) vcan0 0F6#FF640030000FFC00
(0000000147.308502) vcan0 10D#D2F007FC0000
(0000000147.313257) vcan0 0F5#7D003EFFD7F800C8
(0000000147.313461) vcan0 0FB#01187D00
(0000000147.318256) vcan0 0F6#FF640030000FFC00
(0000000147.318546) vcan0 37E#410400C001C988FF
(0000000147.318810) vcan0 10D#7B0007FC0000
(0000000147.323251) vcan0 0F5#7D015DFFD7F800D0
(0000000147.323466) vcan0 0FB#00F07D00
(0000000147.328255) vcan0 0F6#FF640030000FFC00
(0000000147.328505) vcan0 10D#C21007FC0000
(0000000147.333249) vcan0 0F5#7D0297FFD7F800D0
(0000000147.333467) vcan0 0FB#00F07D00
(0000000147.333744) vcan0 383#9800FF0000140000
(0000000147.334035) vcan0 466#142FA7CA3FEA75FC
(0000000147.338253) vcan0 0F6#FF640030000FFC00
(0000000147.338505) vcan0 10D#142007FC0000
(0000000147.343259) vcan0 0F5#7D03F4FFD7F800C8
(0000000147.343477) vcan0 0FB#00F07D00
(0000000147.348254) vcan0 0F6#FF640030000FFC00
(0000000147.348505) vcan0 10D#AD3007FC0000
(0000000147.353237) vcan0 0F5#7D0454FFD7F800E0
(0000000147.353468) vcan0 0FB#00F07D00
(0000000147.358259) vcan0 0F6#FF640030000FFC00
(0000000147.358502) vcan0 10D#A54007FC0000
(0000000147.363249) vcan0 0F5#7D0558FFD7F800D0
(0000000147.363462) vcan0 0FB#00F07D00
(0000000147.368270) vcan0 0F6#FF640030000FFC00
(0000000147.368492) vcan0 10D#1C5007FC0000
(0000000147.373247) vcan0 0F5#7D06B7FFD7F800C8
(0000000147.373461) vcan0 0FB#00F07D00
(0000000147.378252) vcan0 0F6#FF640030000FFC00
(0000000147.378498) vcan0 10D#CA6007FC0000
(0000000147.383240) vcan0 0F5#7D07D4FFD7F800D0
(0000000147.383458) vcan0 0FB#00F07D00
(0000000147.388243) vcan0 0F6#FF640030000FFC00
(0000000147.388486) vcan0 10D#737007FC0000
(0000000147.393253) vcan0 0F5#7D0811FFD7F800D0
(0000000147.393477) vcan0 0FB#00F07D00
(0000000147.398245) vcan0 0F6#FF640030000FFC00
(0000000147.398494) vcan0 10D#DA8007FC0000
(0000000147.403235) vcan0 0F5#7D0957FFD7F800D0
(0000000147.403465) vcan0 0FB#00F07D00
(0000000147.408242) vcan0 0F6#FF640030000FFC00
(0000000147.408502) vcan0 10D#639007FC0000
(0000000147.413229) vcan0 0F5#7D0A9DFFD7F800D0
(0000000147.413466) vcan0 0FB#00F07D00
(0000000147.418240) vcan0 0F6#FF640030000FFC00
(0000000147.418523) vcan0 37E#410400C001D388FF
(0000000147.418735) vcan0 10D#B5A007FC0000
(0000000147.423239) vcan0 0F5#7D0BFEFFD7F800C8
(0000000147.423465) vcan0 0FB#00F07D00
(0000000147.428242) vcan0 0F6#FF640030000FFC00
(0000000147.428494) vcan0 10D#0CB007FC0000
(0000000147.433229) vcan0 0F5#7D0C31FFD7F800C8
(0000000147.433458) vcan0 0FB#00F07D00
(0000000147.433728) vcan0 383#9800FF0000140000
(0000000147.434013) vcan0 466#146E7184AAF75994
(0000000147.438250) vcan0 0F6#FF640030000FFC00
(0000000147.438487) vcan0 10D#04C007FC0000
(0000000147.443238) vcan0 0F5#7D0D52FFD7F800D0
(0000000147.443457) vcan0 0FB#00F07D00
(0000000147.448245) vcan0 0F6#FF640030000FFC00
(0000000147.448488) vcan0 10D#BDD007FC0000
(0000000147.453231) vcan0 0F5#7D0E98FFD7F800D0
(0000000147.453463) vcan0 0FB#00F07D00
(0000000147.458249) vcan0 0F6#FF640030000FFC00
(0000000147.458496) vcan0 10D#6BE007FC0000
(0000000147.463232) vcan0 0F5#7D0FDEFFD7F800D0
(0000000147.463462) vcan0 0FB#00F07D00
(0000000147.468239) vcan0 0F6#FF640030000FFC00
(0000000147.468494) vcan0 10D#D2F007FC0000
(0000000147.473258) vcan0 0F5#7D001BFFD7F800D0
(0000000147.473469) vcan0 0FB#00F07D00
(0000000147.478251) vcan0 0F6#FF640030000FFC00
(0000000147.478488) vcan0 10D#7B0007FC0000
(0000000147.483236) vcan0 0F5#7D015DFFD7F800D0
(0000000147.483454) vcan0 0FB#00F07D00
(0000000147.488260) vcan0 0F6#FF640030000FFC00
(0000000147.488491) vcan0 10D#C21007FC0000
(0000000147.493237) vcan0 0F5#7D0297FFD7F800D0
(0000000147.493453) vcan0 0FB#00F07D00
(0000000147.498243) vcan0 0F6#FF640030000FFC00
(0000000147.498495) vcan0 10D#142007FC0000
(0000000147.503236) vcan0 0F5#7D03D1FFD7F800D0
(0000000147.503456) vcan0 0FB#00F07D00
(0000000147.508240) vcan0 0F6#FF640030000FFC00
(0000000147.508491) vcan0 10D#AD3007FC0000
(0000000147.513233) vcan0 0F5#7D041EFFD7F800D0
(0000000147.513461) vcan0 0FB#00F07D00
(0000000147.518255) vcan0 0F6#FF640030000FFC00
(0000000147.518517) vcan0 37E#410400C001C988FF
(0000000147.518770) vcan0 10D#A54007FC0000
(0000000147.523238) vcan0 0F5#7D057DFFD7F800C8
(0000000147.523455) vcan0 0FB#00F07D00
(0000000147.528246) vcan0 0F6#FF640030000FFC00
(0000000147.528493) vcan0 10D#1C5007FC0000
(0000000147.533225) vcan0 0F5#7D0692FFD7F800D0
(0000000147.533457) vcan0 0FB#00F07D00
(0000000147.533730) vcan0 383#9800FF0000140000
(0000000147.534025) vcan0 466#14AD3B3E16053D2C
(0000000147.538249) vcan0 0F6#FF640030000FFC00
(0000000147.538492) vcan0 10D#CA6007FC0000
(0000000147.543234) vcan0 0F5#7D07D4FFD7F800D0
(0000000147.543460) vcan0 0FB#00F07D00
(0000000147.548236) vcan0 0F6#FF640030000FFC00
(0000000147.548485) vcan0 10D#737007FC0000
(0000000147.553229) vcan0 0F5#7D0811FFD7F800D0
(0000000147.553457) vcan0 0FB#00F07D00
(0000000147.558239) vcan0 0F6#FF640030000FFC00
(0000000147.558497) vcan0 10D#DA8007FC0000
(0000000147.563229) vcan0 0F5#7D0957FFD7F800D0
(0000000147.563457) vcan0 0FB#00F07D00
(0000000147.568235) vcan0 0F6#FF640030000FFC00
(0000000147.568478) vcan0 10D#639007FC0000
(0000000147.573221) vcan0 0F5#7D0AB8FFD7F800C8
(0000000147.573453) vcan0 0FB#00F07D00
(0000000147.578265) vcan0 0F6#FF640030000FFC00
(0000000147.578500) vcan0 10D#B5A007FC0000
(0000000147.583252) vcan0 0F5#7D0BDBFFD7F800D0
(0000000147.583449) vcan0 0FB#00F07D00
(0000000147.588243) vcan0 0F6#FF640030000FFC00
(0000000147.588484) vcan0 10D#0CB007FC0000
(0000000147.593226) vcan0 0F5#7D0C14FFD7F800D0
(0000000147.593456) vcan0 0FB#00F07D00
(0000000147.598239) vcan0 0F6#FF640030000FFC00
(0000000147.598484) vcan0 10D#04C007FC0000
(0000000147.603229) vcan0 0F5#7D0D52FFD7F800D0
(0000000147.603456) vcan0 0FB#00F07D00
(0000000147.608234) vcan0 0F6#FF640030000FFC00
(0000000147.608482) vcan0 10D#BDD007FC0000
(0000000147.613223) vcan0 0F5#7D0E98FFD7F800D0
(0000000147.613448) vcan0 0FB#00F07D00
(0000000147.618269) vcan0 0F6#FF640030000FFC00
(0000000147.618529) vcan0 37E#410400C001C988FF
(0000000147.618787) vcan0 10D#6BE007FC0000
(0000000147.623266) vcan0 0F5#7D0FDEFFD7F800D0
(0000000147.623462) vcan0 0FB#00F07D00
(0000000147.628271) vcan0 0F6#FF640030000FFC00
(0000000147.628487) vcan0 10D#D2F007FC0000
(0000000147.633264) vcan0 0F5#7D001BFFD7F800D0
(0000000147.633455) vcan0 0FB#00F07D00
(0000000147.633734) vcan0 383#9800FF0000140000
(0000000147.634024) vcan0 466#14EC05F7811221C3
(0000000147.638269) vcan0 0F6#FF640030000FFC00
(0000000147.638486) vcan0 10D#7B0007FC0000
(0000000147.643272) vcan0 0F5#7D0178FFD7F800C8
(0000000147.643451) vcan0 0FB#00F07D00
(0000000147.643589) vcan0 384#00
(0000000147.648266) vcan0 0F6#FF640030000FFC00
(0000000147.648489) vcan0 10D#C21007FC0000
(0000000147.653237) vcan0 0F5#7D0297FFD7F800D0
(0000000147.653477) vcan0 0FB#00F07D00
(0000000147.658234) vcan0 0F6#FF640030000FFC00
(0000000147.658487) vcan0 10D#142007FC0000
(0000000147.663231) vcan0 0F5#7D03F4FFD7F800C8
(0000000147.663451) vcan0 0FB#00F07D00
(0000000147.668231) vcan0 0F6#FF640030000FFC00
(0000000147.668474) vcan0 10D#AD3007FC0000
(0000000147.673226) vcan0 0F5#7D043BFFD7F800C8
(0000000147.673450) vcan0 0FB#00F07D00
(0000000147.678255) vcan0 0F6#FF640030000FFC00
(0000000147.678483) vcan0 10D#A54007FC0000
(0000000147.683240) vcan0 0F5#7D0558FFD7F800D0
(0000000147.683453) vcan0 0FB#00F07D00
(0000000147.688243) vcan0 0F6#FF640030000FFC00
(0000000147.688476) vcan0 10D#1C5007FC0000
(0000000147.693228) vcan0 0F5#7D0692FFD7F800D0
(0000000147.693446) vcan0 0FB#00F07D00
(0000000147.698242) vcan0 0F6#FF640030000FFC00
(0000000147.698491) vcan0 10D#CA6007FC0000
(0000000147.703230) vcan0 0F5#7D07F1FFD7F800C8
(0000000147.703452) vcan0 0FB#00F07D00
(0000000147.708234) vcan0 0F6#FF640030000FFC00
(0000000147.708486) vcan0 10D#737007FC0000
(0000000147.713226) vcan0 0F5#7D085BFFD7F800E0
(0000000147.713455) vcan0 0FB#00F07D00
(0000000147.718239) vcan0 0F6#FF640030000FFC00
(0000000147.718520) vcan0 37E#410400C001C988FF
(0000000147.718742) vcan0 10D#DA8007FC0000
(0000000147.723224) vcan0 0F5#7D0957FFD7F800D0
(0000000147.723441) vcan0 0FB#01187D00
(0000000147.728231) vcan0 0F6#FF640030000FFC00
(0000000147.728480) vcan0 10D#639007FC0000
(0000000147.733223) vcan0 0F5#7D0AB8FFD7F800C8
(0000000147.733445) vcan0 0FB#01187D00
(0000000147.733726) vcan0 383#9800FF0000140000
(0000000147.734023) vcan0 466#142CCEB1EC1F055B
(0000000147.738236) vcan0 0F6#FF640030000FFC00
(0000000147.738486) vcan0 10D#B5A007FC0000
(0000000147.743221) vcan0 0F5#7D0BDBFFD7F800D0
(0000000147.743440) vcan0 0FB#01187D00
(0000000147.748236) vcan0 0F6#FF640030000FFC00
(0000000147.748483) vcan0 10D#0CB007FC0000
(0000000147.753229) vcan0 0F5#7D0C31FFD7F800C8
(0000000147.753452) vcan0 0FB#01187D00
(0000000147.758260) vcan0 0F6#FF640030000FFC00
(0000000147.758488) vcan0 10D#04C007FC0000
(0000000147.763237) vcan0 0F5#7D0D52FFD7F800D0
(0000000147.763460) vcan0 0FB#01187D00
(0000000147.768240) vcan0 0F6#FF640030000FFC00
(0000000147.768484) vcan0 10D#BDD007FC0000
(0000000147.773264) vcan0 0F5#7D0ED2FFD7F800E0
(0000000147.773451) vcan0 0FB#01187D00
(0000000147.778262) vcan0 0F6#FF640030000FFC00
(0000000147.778542) vcan0 10D#6BE007FC0000
(0000000147.783250) vcan0 0F5#7D0FFBFFD7F800C8
(0000000147.783446) vcan0 0FB#01187D00
(0000000147.788245) vcan0 0F6#FF640030000FFC00
(0000000147.788506) vcan0 10D#D2F007FC0000
(0000000147.793242) vcan0 0F5#7D003EFFD7F800C8
(0000000147.793450) vcan0 0FB#01187D00
(0000000147.798244) vcan0 0F6#FF640030000FFC00
(0000000147.798482) vcan0 10D#7B0007FC0000
(0000000147.803247) vcan0 0F5#7D015DFFD7F800D0
(0000000147.803454) vcan0 0FB#01187D00
(0000000147.808260) vcan0 0F6#FF640030000FFC00
(0000000147.808485) vcan0 10D#C21007FC0000
(0000000147.813243) vcan0 0F5#7D0297FFD7F800D0
(0000000147.813468) vcan0 0FB#01187D00
(0000000147.818244) vcan0 0F6#FF640030000FFC00
(0000000147.818529) vcan0 37E#410400C001C988FF
(0000000147.818744) vcan0 10D#142007FC0000
(0000000147.823234) vcan0 0F5#7D03D1FFD7F800D0
(0000000147.823476) vcan0 0FB#00F07D00
(0000000147.828241) vcan0 0F6#FF640030000FFC00
(0000000147.828481) vcan0 10D#AD3007FC0000
(0000000147.833239) vcan0 0F5#7D041EFFD7F800D0
(0000000147.833467) vcan0 0FB#00F07D00
(0000000147.833723) vcan0 383#9800FF0000140000
(0000000147.834012) vcan0 466#146B986B582CE8F2
(0000000147.838246) vcan0 0F6#FF640030000FFC00
(0000000147.838509) vcan0 10D#A54007FC0000
(0000000147.843233) vcan0 0F5#7D0558FFD7F800D0
(0000000147.843475) vcan0 0FB#00F07D00
(0000000147.848242) vcan0 0F6#FF640030000FFC00
(0000000147.848493) vcan0 10D#1C5007FC0000
(0000000147.853233) vcan0 0F5#7D0692FFD7F800D0
(0000000147.853475) vcan0 0FB#00F07D00
(0000000147.858239) vcan0 0F6#FF640030000FFC00
(0000000147.858483) vcan0 10D#CA6007FC0000
(0000000147.863227) vcan0 0F5#7D079EFFD7F800E0
(0000000147.863441) vcan0 0FB#00F07D00
(0000000147.868266) vcan0 0F6#FF640030000FFC00
(0000000147.868477) vcan0 10D#737007FC0000
(0000000147.873230) vcan0 0F5#7D0811FFD7F800D0
(0000000147.873466) vcan0 0FB#00F07D00
(0000000147.878231) vcan0 0F6#FF640030000FFC00
(0000000147.878481) vcan0 10D#DA8007FC0000
(0000000147.883237) vcan0 0F5#7D0972FFD7F800C8
(0000000147.883439) vcan0 0FB#00F07D00
(0000000147.888233) vcan0 0F6#FF640030000FFC00
(0000000147.888470) vcan0 10D#639007FC0000
(0000000147.893214) vcan0 0F5#7D0A9DFFD7F800D0
(0000000147.893444) vcan0 0FB#00F07D00
(0000000147.898229) vcan0 0F6#FF640030000FFC00
(0000000147.898490) vcan0 10D#B5A007FC0000
(0000000147.903215) vcan0 0F5#7D0BDBFFD7F800D0
(0000000147.903447) vcan0 0FB#00F07D00
(0000000147.908230) vcan0 0F6#FF640030000FFC00
(0000000147.908485) vcan0 10D#0CB007FC0000
(0000000147.913218) vcan0 0F5#7D0C31FFD7F800C8
(0000000147.913441) vcan0 0FB#00F07D00
(0000000147.918227) vcan0 0F6#FF640030000FFC00
(0000000147.918510) vcan0 37E#410400C001D388FF
(0000000147.918777) vcan0 10D#04C007FC0000
(0000000147.923223) vcan0 0F5#7D0D18FFD7F800E0
(0000000147.923444) vcan0 0FB#00F07D00
(0000000147.928226) vcan0 0F6#FF640030000FFC00
(0000000147.928483) vcan0 10D#BDD007FC0000
(0000000147.933227) vcan0 0F5#7D0E98FFD7F800D0
(0000000147.933461) vcan0 0FB#00F07D00
(0000000147.933723) vcan0 383#9800FF0000140000
(0000000147.934007) vcan0 466#14AA6225C339CC8A
(0000000147.938240) vcan0 0F6#FF640030000FFC00
(0000000147.938476) vcan0 10D#6BE007FC0000
(0000000147.943224) vcan0 0F5#7D0FFBFFD7F800C8
(0000000147.943439) vcan0 0FB#00F07D00
(0000000147.948255) vcan0 0F6#FF640030000FFC00
(0000000147.948487) vcan0 10D#D2F007FC0000
(0000000147.953228) vcan0 0F5#7D0051FFD7F800E0
(0000000147.953439) vcan0 0FB#00F07D00
(0000000147.958235) vcan0 0F6#FF640030000FFC00
(0000000147.958471) vcan0 10D#7B0007FC0000
(0000000147.963219) vcan0 0F5#7D015DFFD7F800D0
(0000000147.963441) vcan0 0FB#00F07D00
(0000000147.968228) vcan0 0F6#FF640030000FFC00
(0000000147.968479) vcan0 10D#C21007FC0000
(0000000147.973215) vcan0 0F5#7D02B2FFD7F800C8
(0000000147.973445) vcan0 0FB#00F07D00
(0000000147.978228) vcan0 0F6#FF640030000FFC00
(0000000147.978469) vcan0 10D#142007FC0000
