(1704734228.989526) vcan0 0EE#320320AA00000C93
(1704734228.989749) vcan0 0EF#4E217D0C4D96172A
(1704734228.989991) vcan0 0F0#4E217D0C63200000
(1704734228.990229) vcan0 132#FE7F36649C425000
(1704734228.990467) vcan0 133#007F30CD00060000
(1704734228.991437) vcan0 0FD#6BE0FFFE0099A0FF
(1704734228.991542) vcan0 144#BA
(1704734228.991787) vcan0 177#54E0C8002D028000
(1704734228.992016) vcan0 0F5#7D0D94FFD7F87170
(1704734228.992246) vcan0 5F1#6F16F36EB6EB6EBF
(1704734228.992409) vcan0 0FB#72107D00
(1704734228.996892) vcan0 0F8#FFFE7167C061BFFF
(1704734228.997129) vcan0 0F6#FF640030000FFC00
(1704734228.997333) vcan0 10D#BDD007FC0000
(1704734228.997564) vcan0 5F0#6EE6EE6EE6F16F1F
(1704734228.998755) vcan0 148#6EC131000480
(1704734228.999441) vcan0 0EE#320320AA00000D8E
(1704734228.999669) vcan0 0EF#4E217D0DD096172A
(1704734228.999911) vcan0 0F0#4E217D0DFE200000
(1704734229.000145) vcan0 132#FE7F36649DCD5000
(1704734229.000391) vcan0 133#007F347800060000
(1704734229.001357) vcan0 0FD#D2F0FFFE0099A0FF
(1704734229.001462) vcan0 144#BA
(1704734229.001711) vcan0 177#EDF0C8002D028000
(1704734229.001935) vcan0 5ED#6F06EE6F16F16F1F
(1704734229.002168) vcan0 0F5#7D0E5EFFD7F87170
(1704734229.002394) vcan0 0FB#72107D00
(1704734229.006896) vcan0 0F8#FFFE718FC075BFFF
(1704734229.007134) vcan0 0F6#FF640030000FFC00
(1704734229.007343) vcan0 10D#6BE007FC0000
(1704734229.007569) vcan0 5EA#6F06F36F16F16F0F
(1704734229.008749) vcan0 148#6EC131000480
(1704734229.009665) vcan0 0EE#320320AA00000EA9
(1704734229.009894) vcan0 0EF#4E217D0E6A96172A
(1704734229.010140) vcan0 0F0#4E217D0E44200000
(1704734229.010376) vcan0 132#FE7F36649E415000
(1704734229.010620) vcan0 133#007F38BA00060000
(1704734229.011584) vcan0 0FD#7B00FFFE0099A0FF
(1704734229.011686) vcan0 144#BA
(1704734229.011931) vcan0 177#4400C8002D028000
(1704734229.012170) vcan0 0F5#7D0F42FFD7F87198
(1704734229.012332) vcan0 0FB#72107D00
(1704734229.012560) vcan0 5D9#6EE6EE6EB6EE6F3F
(1704734229.016903) vcan0 0F8#FFFE718FC075BFFF
(1704734229.017137) vcan0 0F6#FF640030000FFC00
(1704734229.017348) vcan0 10D#D2F007FC0000
(1704734229.017572) vcan0 5D7#6F06ED6EB6ED6EEF
(1704734229.018749) vcan0 148#6EC131000480
(1704734229.019570) vcan0 0EE#320320AA00000FB4
(1704734229.019790) vcan0 0EF#4E217D0FF796172A
(1704734229.020032) vcan0 0F0#4E217D0FD9200000
(1704734229.020272) vcan0 132#FE7F36649FCE5000
(1704734229.020519) vcan0 133#007F3C0F00060000
(1704734229.021549) vcan0 0FD#C210FFFE0099A0FF
(1704734229.021652) vcan0 144#BA
(1704734229.021895) vcan0 177#FD10C8002D028000
(1704734229.022124) vcan0 0F5#7D006FFFD7F87190
(1704734229.022347) vcan0 5D6#6EB6ED6F16F36F1F
(1704734229.022517) vcan0 0FB#72107D00
(1704734229.026910) vcan0 0F8#FFFE7177C075BFFF
(1704734229.027143) vcan0 0F6#FF640030000FFC00
(1704734229.027374) vcan0 5CC#6F06F16EE6EE6EEF
(1704734229.027619) vcan0 37E#415400C003CF80FF
(1704734229.027829) vcan0 10D#7B0007FC0000
(1704734229.028777) vcan0 38E#2192FFC010200000
(1704734229.029025) vcan0 029#C54A8CB600F3
(1704734229.029232) vcan0 148#6EC131000480
(1704734229.029797) vcan0 0EE#320320AA0000000F
(1704734229.030034) vcan0 0EF#4E217D001896170A
(1704734229.030268) vcan0 0F0#4E217D00B1200000
(1704734229.030510) vcan0 132#FE7F366490485000
(1704734229.030763) vcan0 133#007F00E200060000
(1704734229.031217) vcan0 36C#40AA49E900080E45
(1704734229.031798) vcan0 0FD#1420FFFE0099A0FF
(1704734229.032025) vcan0 0F5#7D019BFFD7F87170
(1704734229.032193) vcan0 0FB#72107D00
(1704734229.032307) vcan0 144#BA
(1704734229.032545) vcan0 177#2B20C8002D028000
(1704734229.032776) vcan0 5CB#6F16F36F06F16EBF
(1704734229.036909) vcan0 0F8#FFFE713FC075BFFF
(1704734229.037147) vcan0 0F6#FF640030000FFC00
(1704734229.037357) vcan0 10D#C21007FC0000
(1704734229.037584) vcan0 5C9#6EE6ED6F06F36F3F
(1704734229.038656) vcan0 148#6EC131000480
(1704734229.039425) vcan0 0EE#320320AA00000112
(1704734229.039657) vcan0 0EF#4E217D018596170A
(1704734229.039909) vcan0 0F0#4E217D012C200000
(1704734229.040139) vcan0 132#FE7F366491C75000
(1704734229.040384) vcan0 133#007F045700060000
(1704734229.041413) vcan0 0FD#AD30FFFE0099A0FF
(1704734229.041515) vcan0 144#BA
(1704734229.041761) vcan0 177#9230C8002D028000
(1704734229.041993) vcan0 0F5#7D022EFFD7F87180
(1704734229.042232) vcan0 373#C1805DB20000FFCB
(1704734229.042405) vcan0 0FB#72107D00
(1704734229.042635) vcan0 381#AAFFFFD7055C487D
(1704734229.042879) vcan0 383#4412FFCF00200000
(1704734229.043100) vcan0 5B7#6EE6ED6EE6EE6EBF
(1704734229.046916) vcan0 0F8#FFFE713FC079BFFF
(1704734229.047154) vcan0 0F6#FF640030000FFC00
(1704734229.047360) vcan0 10D#142007FC0000
(1704734229.047583) vcan0 5B5#6EE6F16F16EE6EDF
(1704734229.048654) vcan0 148#6EC131000480
(1704734229.049690) vcan0 0EE#320320AA00000235
(1704734229.049911) vcan0 0EF#4E217D02B896172A
(1704734229.050155) vcan0 0F0#4E217D0296200000
(1704734229.050388) vcan0 132#FE7F3664924B5000
(1704734229.050631) vcan0 133#007F089500060000
(1704734229.051615) vcan0 0FD#A540FFFE0099A0FF
(1704734229.051719) vcan0 144#BA
(1704734229.051962) vcan0 177#9A40C8002D028000
(1704734229.052197) vcan0 0F5#7D0380FFD7F87188
(1704734229.052424) vcan0 382#622C7F1663140063
(1704734229.052592) vcan0 0FB#72107D00
(1704734229.052822) vcan0 5B4#6EE6EB6EB6EB6EBF
(1704734229.054449) vcan0 375#022900BFF264FFFF
(1704734229.054674) vcan0 376#12DB9903F93F4254
(1704734229.054915) vcan0 440#0031ABD01FFEFF96
(1704734229.055156) vcan0 4CE#5FFFFFFFDFFFED3D
(1704734229.056924) vcan0 0F8#FFFE713FC061BFFF
(1704734229.057161) vcan0 0F6#FF640030000FFC00
(1704734229.057364) vcan0 10D#AD3007FC0000
(1704734229.057594) vcan0 5AC#6F36EE6EE6F16F0F
(1704734229.057873) vcan0 4FB#8F00040000CA
(1704734229.058650) vcan0 148#6EC131000480
(1704734229.059528) vcan0 0EE#320320AA00000328
(1704734229.059754) vcan0 0EF#4E217D032596172A
(1704734229.060002) vcan0 0F0#4E217D030B200000
(1704734229.060236) vcan0 132#FE7F366493C45000
(1704734229.060482) vcan0 133#007F0C2000060000
(1704734229.061451) vcan0 0FD#1C50FFFE0099A0FF
(1704734229.061552) vcan0 144#BA
(1704734229.061796) vcan0 177#2350C8002D028000
(1704734229.062028) vcan0 0F5#7D046AFFD7F87190
(1704734229.062194) vcan0 0FB#72107D00
(1704734229.062417) vcan0 3EF#D5E0DC15B00F60
(1704734229.062595) vcan0 4DB#AE1ACE
(1704734229.062875) vcan0 5AD#6F36EE6F56F36F0F
(1704734229.066931) vcan0 0F8#FFFE711FC071BFFF
(1704734229.067167) vcan0 0F6#FF640030000FFC00
(1704734229.067395) vcan0 5A1#6F36F16F06F36F3F
(1704734229.067601) vcan0 10D#A54007FC0000
(1704734229.067864) vcan0 466#145E2078B2C7CF4D
(1704734229.068646) vcan0 148#6EC131000480
(1704734229.069588) vcan0 0EE#320320AA0000047B
(1704734229.069816) vcan0 0EF#4E217D04D196172A
(1704734229.070065) vcan0 0F0#4E217D04FF200000
(1704734229.070301) vcan0 132#FE7F3664944E5000
(1704734229.070551) vcan0 133#007F100C00060000
(1704734229.071535) vcan0 0FD#CA60FFFE0099A0FF
(1704734229.071635) vcan0 144#BA
(1704734229.071878) vcan0 177#F560C8002D028000
(1704734229.072110) vcan0 0F5#7D05C4FFD7F87198
(1704734229.072238) vcan0 5DD#6F3F
(1704734229.072406) vcan0 0FB#72107D00
(1704734229.076929) vcan0 0F8#FFFE711FC06DBFFF
(1704734229.077164) vcan0 0F6#FF640030000FFC00
(1704734229.077391) vcan0 5DC#6363636363636363
(1704734229.077591) vcan0 10D#1C5007FC0000
(1704734229.078639) vcan0 148#6EC131000480
(1704734229.079422) vcan0 0EE#320320AA00000566
(1704734229.079648) vcan0 0EF#4E217D054C96172A
(1704734229.079899) vcan0 0F0#4E217D0562200000
(1704734229.080137) vcan0 132#FE7F366495C15000
(1704734229.080380) vcan0 133#007F14B900060000
(1704734229.081374) vcan0 0FD#7370FFFE0099A0FF
(1704734229.081475) vcan0 144#BA
(1704734229.081715) vcan0 177#4C70C8002D028000
(1704734229.081972) vcan0 0F5#7D0654FFD7F87170
(1704734229.082195) vcan0 0FB#72107D00
(1704734229.086991) vcan0 0F6#FF640030000FFC00
(1704734229.087223) vcan0 0F8#FFFE714FC071BFFF
(1704734229.087430) vcan0 10D#CA6007FC0000
(1704734229.088634) vcan0 148#6EC131000480
(1704734229.089629) vcan0 0EE#320320AA00000641
(1704734229.089855) vcan0 0EF#4E217D06F696172A
(1704734229.090103) vcan0 0F0#4E217D06D8200000
(1704734229.090339) vcan0 132#FE7F3664964D5000
(1704734229.090579) vcan0 133#007F187B00060000
(1704734229.091538) vcan0 0FD#DA80FFFE0099A0FF
(1704734229.091635) vcan0 144#BA
(1704734229.091877) vcan0 177#E580C8002D028000
(1704734229.092118) vcan0 0F5#7D0737FFD7F87168
(1704734229.092301) vcan0 0FB#72107D00
(1704734229.096938) vcan0 0F8#FFFE714FC071BFFF
(1704734229.097172) vcan0 0F6#FF640030000FFC00
(1704734229.097430) vcan0 10D#737007FC0000
(1704734229.098627) vcan0 148#6EC131000480
(1704734229.099540) vcan0 0EE#320320AA0000075C
(1704734229.099761) vcan0 0EF#4E217D076B96172A
(1704734229.100012) vcan0 0F0#4E217D0745200000
(1704734229.100251) vcan0 132#FE7F366497C25000
(1704734229.100493) vcan0 133#007F1CCE00060000
(1704734229.101458) vcan0 0FD#6390FFFE0099A0FF
(1704734229.101559) vcan0 144#BA
(1704734229.101795) vcan0 177#5C90C8002D028000
(1704734229.102031) vcan0 0F5#7D0840FFD7F87188
(1704734229.102204) vcan0 0FB#72107D00
(1704734229.106943) vcan0 0F8#FFFE7187C069BFFF
(1704734229.107176) vcan0 0F6#FF640030000FFC00
(1704734229.107436) vcan0 10D#DA8007FC0000
(1704734229.108623) vcan0 148#6EC131000480
(1704734229.109529) vcan0 0EE#320320AA000008E7
(1704734229.109751) vcan0 0EF#4E217D080396172A
(1704734229.109994) vcan0 0F0#4E217D082D200000
(1704734229.110226) vcan0 132#FE7F366498445000
(1704734229.110476) vcan0 133#007F202300060000
(1704734229.111423) vcan0 0FD#B5A0FFFE0099A0FF
(1704734229.111530) vcan0 144#BA
(1704734229.111774) vcan0 177#8AA0C8002D028000
(1704734229.112005) vcan0 0F5#7D0906FFD7F87188
(1704734229.112188) vcan0 0FB#72107D00
(1704734229.116948) vcan0 0F8#FFFE7187C075BFFF
(1704734229.117185) vcan0 0F6#FF640030000FFC00
(1704734229.117431) vcan0 10D#639007FC0000
(1704734229.118620) vcan0 148#6EC131000480
(1704734229.119418) vcan0 0EE#320320AA000009FA
(1704734229.119639) vcan0 0EF#4E217D099E96172A
(1704734229.119884) vcan0 0F0#4E217D09B0200000
(1704734229.120120) vcan0 132#FE7F366499CB5000
(1704734229.120362) vcan0 133#007F249600060000
(1704734229.121406) vcan0 0FD#0CB0FFFE0099A0FF
(1704734229.121509) vcan0 144#BA
(1704734229.121755) vcan0 177#33B0C8002D028000
(1704734229.121984) vcan0 0F5#7D0A5BFFD7F87170
(1704734229.122191) vcan0 0FB#72107D00
(1704734229.126956) vcan0 0F8#FFFE717FC079BFFF
(1704734229.127189) vcan0 0F6#FF640030000FFC00
(1704734229.127461) vcan0 37E#414A00C003C580FF
(1704734229.127671) vcan0 10D#B5A007FC0000
(1704734229.128653) vcan0 38E#2192FFC010200000
(1704734229.128886) vcan0 029#C54A8DDC00F3
(1704734229.129090) vcan0 148#6EC131000480
(1704734229.129905) vcan0 0EE#320320AA00000ADD
(1704734229.130123) vcan0 0EF#4E217D0AA396170A
(1704734229.130363) vcan0 0F0#4E217D0A0A200000
(1704734229.130598) vcan0 132#FE7F36649A475000
(1704734229.130847) vcan0 133#007F285400060000
(1704734229.131225) vcan0 36C#40AA49E900080F58
(1704734229.131907) vcan0 0FD#04C0FFFE0099A0FF
(1704734229.132134) vcan0 0F5#7D0B1DFFD7F87170
(1704734229.132301) vcan0 0FB#72107D00
(1704734229.132411) vcan0 144#BA
(1704734229.132652) vcan0 177#3BC0C8002D028000
(1704734229.136956) vcan0 0F8#FFFE713FC075BFFF
(1704734229.137195) vcan0 0F6#FF640030000FFC00
(1704734229.137432) vcan0 10D#0CB007FC0000
(1704734229.138616) vcan0 148#6EC131000480
(1704734229.139560) vcan0 0EE#320320AA00000BC0
(1704734229.139784) vcan0 0EF#4E217D0B3E96170A
(1704734229.140028) vcan0 0F0#4E217D0B97200000
(1704734229.140260) vcan0 132#FE7F36649BC85000
(1704734229.140505) vcan0 133#007F2CE100060000
(1704734229.141615) vcan0 0FD#BDD0FFFE0099A0FF
(1704734229.141718) vcan0 144#BA
(1704734229.141961) vcan0 177#82D0C8002D028000
(1704734229.142188) vcan0 0F5#7D0CF7FFD7F87168
(1704734229.142427) vcan0 373#C1805DB20000FFCB
(1704734229.142590) vcan0 0FB#72107D00
(1704734229.142830) vcan0 381#55FFFFD7055C487D
(1704734229.143073) vcan0 383#4412FFCF00200000
(1704734229.146963) vcan0 0F8#FFFE713FC075BFFF
(1704734229.147200) vcan0 0F6#FF640030000FFC00
(1704734229.147432) vcan0 10D#04C007FC0000
(1704734229.148603) vcan0 148#6EC131000480
(1704734229.149592) vcan0 0EE#320320AA00000C93
(1704734229.149816) vcan0 0EF#4E217D0CCA96170A
(1704734229.150057) vcan0 0F0#4E217D0C63200000
(1704734229.150293) vcan0 132#FE7F36649C425000
(1704734229.150536) vcan0 133#007F30CD00060000
(1704734229.151592) vcan0 0FD#6BE0FFFE0099A0FF
(1704734229.151695) vcan0 144#BA
(1704734229.151946) vcan0 177#54E0C8002D028000
(1704734229.152178) vcan0 0F5#7D0D26FFD7F87190
(1704734229.152404) vcan0 382#622C7F1663140063
(1704734229.152571) vcan0 0FB#72107D00
(1704734229.154523) vcan0 375#022900BFF264FFFF
(1704734229.154754) vcan0 376#12DB9903F93F4254
(1704734229.154998) vcan0 440#003184E01FFEFF96
(1704734229.155246) vcan0 4CE#5FFFFFFFDFFFEE1A
(1704734229.156969) vcan0 0F8#FFFE713FC06DBFFF
(1704734229.157207) vcan0 0F6#FF640030000FFC00
(1704734229.157435) vcan0 10D#BDD007FC0000
(1704734229.157887) vcan0 4FB#800004000096
(1704734229.158597) vcan0 148#6EC131000480
(1704734229.159486) vcan0 0EE#320320AA00000D8E
(1704734229.159709) vcan0 0EF#4E217D0DD096172A
(1704734229.159956) vcan0 0F0#4E217D0DFE200000
(1704734229.160191) vcan0 132#FE7F36649DCD5000
(1704734229.160429) vcan0 133#007F347800060000
(1704734229.161513) vcan0 0FD#D2F0FFFE0099A0FF
(1704734229.161618) vcan0 144#BA
(1704734229.161863) vcan0 177#EDF0C8002D028000
(1704734229.162094) vcan0 0F5#7D0EC9FFD7F87188
(1704734229.162304) vcan0 3EF#6CF0DC15B00F60
(1704734229.162475) vcan0 0FB#71C07D00
(1704734229.162618) vcan0 4DB#AE2ACF
(1704734229.166974) vcan0 0F8#FFFE711FC065BFFF
(1704734229.167211) vcan0 0F6#FF640030000FFC00
(1704734229.167433) vcan0 10D#6BE007FC0000
(1704734229.167662) vcan0 466#149DE9321ED4B3E4
(1704734229.168594) vcan0 148#6EC131000480
(1704734229.169734) vcan0 0EE#320320AA00000EA9
(1704734229.169958) vcan0 0EF#4E217D0E6A96172A
(1704734229.170203) vcan0 0F0#4E217D0E44200000
(1704734229.170445) vcan0 132#FE7F36649E415000
(1704734229.170687) vcan0 133#007F38BA00060000
(1704734229.171793) vcan0 0FD#7B00FFFE0099A0FF
(1704734229.172019) vcan0 0F5#7D0F3DFFD7F87168
(1704734229.172132) vcan0 144#BA
(1704734229.172303) vcan0 0FB#71C07D00
(1704734229.172543) vcan0 177#4400C8002D028000
(1704734229.176973) vcan0 0F8#FFFE711FC06DBFFF
(1704734229.177211) vcan0 0F6#FF640030000FFC00
(1704734229.177427) vcan0 10D#D2F007FC0000
(1704734229.178586) vcan0 148#6EC131000480
(1704734229.179592) vcan0 0EE#320320AA00000FB4
(1704734229.179820) vcan0 0EF#4E217D0FF796172A
(1704734229.180064) vcan0 0F0#4E217D0FD9200000
(1704734229.180302) vcan0 132#FE7F36649FCE5000
(1704734229.180550) vcan0 133#007F3C0F00060000
(1704734229.181670) vcan0 0FD#C210FFFE0099A0FF
(1704734229.181773) vcan0 144#BA
(1704734229.182014) vcan0 0F5#7D00DDFFD7F87170
(1704734229.182246) vcan0 177#FD10C8002D028000
(1704734229.182412) vcan0 0FB#71C07D00
(1704734229.186986) vcan0 0F6#FF640030000FFC00
(1704734229.187215) vcan0 0F8#FFFE715FC079BFFF
(1704734229.187419) vcan0 10D#7B0007FC0000
(1704734229.188585) vcan0 148#6EC131000480
(1704734229.189587) vcan0 0EE#320320AA0000000F
(1704734229.189815) vcan0 0EF#4E217D009F96172A
(1704734229.190060) vcan0 0F0#4E217D00B1200000
(1704734229.190299) vcan0 132#FE7F366490485000
(1704734229.190549) vcan0 133#007F00E200060000
(1704734229.191605) vcan0 0FD#1420FFFE0099A0FF
(1704734229.191712) vcan0 144#BA
(1704734229.191955) vcan0 177#2B20C8002D028000
(1704734229.192186) vcan0 0F5#7D019BFFD7F87170
(1704734229.192392) vcan0 0FB#71C07D00
(1704734229.196984) vcan0 0F6#FF640030000FFC00
(1704734229.197216) vcan0 0F8#FFFE715FC079BFFF
(1704734229.197423) vcan0 10D#C21007FC0000
(1704734229.198581) vcan0 148#6EC131000480
(1704734229.199435) vcan0 0EE#320320AA00000112
(1704734229.199663) vcan0 0EF#4E217D010296172A
(1704734229.199909) vcan0 0F0#4E217D012C200000
(1704734229.200150) vcan0 132#FE7F366491C75000
(1704734229.200394) vcan0 133#007F045700060000
(1704734229.201453) vcan0 0FD#AD30FFFE0099A0FF
(1704734229.201553) vcan0 144#BA
(1704734229.201798) vcan0 177#9230C8002D028000
(1704734229.202026) vcan0 0F5#7D0274FFD7F87168
(1704734229.202192) vcan0 0FB#71C07D00
(1704734229.206987) vcan0 0F6#FF640030000FFC00
(1704734229.207222) vcan0 0F8#FFFE718FC079BFFF
(1704734229.207425) vcan0 10D#142007FC0000
(1704734229.208582) vcan0 148#6EC131000480
(1704734229.209683) vcan0 0EE#320320AA00000235
(1704734229.209912) vcan0 0EF#4E217D02B896172A
(1704734229.210161) vcan0 0F0#4E217D0296200000
(1704734229.210391) vcan0 132#FE7F3664924B5000
(1704734229.210639) vcan0 133#007F089500060000
(1704734229.211698) vcan0 0FD#A540FFFE0099A0FF
(1704734229.211798) vcan0 144#BA
(1704734229.212039) vcan0 0F5#7D0380FFD7F87188
(1704734229.212204) vcan0 0FB#71C07D00
(1704734229.212444) vcan0 177#9A40C8002D028000
(1704734229.216985) vcan0 0F6#FF640030000FFC00
(1704734229.217213) vcan0 0F8#FFFE718FC069BFFF
(1704734229.217417) vcan0 10D#AD3007FC0000
(1704734229.218577) vcan0 148#6EC131000480
(1704734229.219545) vcan0 0EE#320320AA00000328
(1704734229.219765) vcan0 0EF#4E217D032596172A
(1704734229.220009) vcan0 0F0#4E217D030B200000
(1704734229.220243) vcan0 132#FE7F366493C45000
(1704734229.220487) vcan0 133#007F0C2000060000
(1704734229.221656) vcan0 0FD#1C50FFFE0099A0FF
(1704734229.221756) vcan0 144#BA
(1704734229.222000) vcan0 0F5#7D04FDFFD7F87168
(1704734229.222237) vcan0 177#2350C8002D028000
(1704734229.222403) vcan0 0FB#71C07D00
(1704734229.226986) vcan0 0F6#FF640030000FFC00
(1704734229.227215) vcan0 0F8#FFFE717FC071BFFF
(1704734229.227462) vcan0 37E#415500C003CF80FF
(1704734229.227664) vcan0 10D#A54007FC0000
(1704734229.228608) vcan0 38E#2192FFC010200000
(1704734229.228845) vcan0 029#C54A8E6200F3
(1704734229.229068) vcan0 148#6EC132000480
(1704734229.229843) vcan0 0EE#320320AA0000047B
(1704734229.230063) vcan0 0EF#4E217D045696170A
(1704734229.230315) vcan0 0F0#4E217D04FF200000
(1704734229.230550) vcan0 132#FE7F3664944E5000
(1704734229.230795) vcan0 133#007F100C00060000
(1704734229.231234) vcan0 36C#40AA49E9000800E3
(1704734229.231954) vcan0 0FD#CA60FFFE0099A0FF
(1704734229.232184) vcan0 0F5#7D059EFFD7F87170
(1704734229.232290) vcan0 144#BA
(1704734229.232460) vcan0 0FB#71C07D00
(1704734229.232697) vcan0 177#F560C8002D028000
(1704734229.236984) vcan0 0F6#FF640030000FFC00
(1704734229.237219) vcan0 0F8#FFFE713FC075BFFF
(1704734229.237415) vcan0 10D#1C5007FC0000
(1704734229.238566) vcan0 148#6EC132000480
(1704734229.239467) vcan0 0EE#320320AA00000566
(1704734229.239691) vcan0 0EF#4E217D05CB96170A
(1704734229.239942) vcan0 0F0#4E217D0562200000
(1704734229.240178) vcan0 132#FE7F366495C15000
(1704734229.240424) vcan0 133#007F14B900060000
(1704734229.241460) vcan0 0FD#7370FFFE0099A0FF
(1704734229.241562) vcan0 144#BA
(1704734229.241800) vcan0 177#4C70C8002D028000
(1704734229.242035) vcan0 0F5#7D06C3FFD7F87188
(1704734229.242199) vcan0 0FB#71C07D00
(1704734229.242442) vcan0 373#C1805DB20000FFCB
(1704734229.242674) vcan0 381#55FFFFD7055C487D
(1704734229.242919) vcan0 383#4412FFCF00200000
(1704734229.246983) vcan0 0F6#FF640030000FFC00
(1704734229.247214) vcan0 0F8#FFFE713FC071BFFF
(1704734229.247427) vcan0 10D#CA6007FC0000
(1704734229.248557) vcan0 148#6EC132000480
(1704734229.249716) vcan0 0EE#320320AA00000641
(1704734229.249935) vcan0 0EF#4E217D067196170A
(1704734229.250181) vcan0 0F0#4E217D06D8200000
(1704734229.250415) vcan0 132#FE7F3664964D5000
(1704734229.250660) vcan0 133#007F187B00060000
(1704734229.251657) vcan0 0FD#DA80FFFE0099A0FF
(1704734229.251761) vcan0 144#BA
(1704734229.252010) vcan0 0F5#7D0712FFD7F87170
(1704734229.252238) vcan0 177#E580C8002D028000
(1704734229.252402) vcan0 0FB#71C07D00
(1704734229.252630) vcan0 382#622C7F1663140063
(1704734229.254463) vcan0 375#022900BFF264FFFF
(1704734229.254692) vcan0 376#12DB9903F93F4254
(1704734229.254931) vcan0 440#00316AF01FFEFF96
(1704734229.255179) vcan0 4CE#5FFFFFFFDFFFEF07
(1704734229.256981) vcan0 0F6#FF640030000FFC00
(1704734229.257217) vcan0 0F8#FFFE713FC06DBFFF
(1704734229.257419) vcan0 10D#737007FC0000
(1704734229.257900) vcan0 4FB#8100040000CB
(1704734229.258552) vcan0 148#6EC132000480
(1704734229.259534) vcan0 0EE#320320AA0000075C
(1704734229.259762) vcan0 0EF#4E217D076B96172A
(1704734229.260010) vcan0 0F0#4E217D0745200000
(1704734229.260249) vcan0 132#FE7F366497C25000
(1704734229.260492) vcan0 133#007F1CCE00060000
(1704734229.261467) vcan0 0FD#6390FFFE0099A0FF
(1704734229.261573) vcan0 144#BA
(1704734229.261814) vcan0 177#5C90C8002D028000
(1704734229.262046) vcan0 0F5#7D081AFFD7F87160
(1704734229.262212) vcan0 0FB#72107D00
(1704734229.262430) vcan0 3EF#C500DC15B00F60
(1704734229.262615) vcan0 4DB#AE0ACE
(1704734229.266988) vcan0 0F6#FF640030000FFC00
(1704734229.267218) vcan0 0F8#FFFE711FC075BFFF
(1704734229.267426) vcan0 10D#DA8007FC0000
(1704734229.267656) vcan0 466#14DCB3EB89E1977C
(1704734229.268548) vcan0 148#6EC132000480
(1704734229.269568) vcan0 0EE#320320AA000008E7
(1704734229.269792) vcan0 0EF#4E217D080396172A
(1704734229.270038) vcan0 0F0#4E217D082D200000
(1704734229.270270) vcan0 132#FE7F366498445000
(1704734229.270516) vcan0 133#007F202300060000
(1704734229.271505) vcan0 0FD#B5A0FFFE0099A0FF
(1704734229.271610) vcan0 144#BA
(1704734229.271857) vcan0 177#8AA0C8002D028000
(1704734229.272086) vcan0 0F5#7D0991FFD7F87170
(1704734229.272298) vcan0 0FB#72107D00
(1704734229.276983) vcan0 0F6#FF640030000FFC00
(1704734229.277227) vcan0 0F8#FFFE711FC065BFFF
(1704734229.277430) vcan0 10D#639007FC0000
(1704734229.278550) vcan0 148#6EC131000480
(1704734229.279413) vcan0 0EE#320320AA000009FA
(1704734229.279637) vcan0 0EF#4E217D099E96172A
(1704734229.279878) vcan0 0F0#4E217D09B0200000
(1704734229.280120) vcan0 132#FE7F366499CB5000
(1704734229.280361) vcan0 133#007F249600060000
(1704734229.281388) vcan0 0FD#0CB0FFFE0099A0FF
(1704734229.281489) vcan0 144#BA
(1704734229.281737) vcan0 177#33B0C8002D028000
(1704734229.281967) vcan0 0F5#7D0A96FFD7F87160
(1704734229.282193) vcan0 0FB#72107D00
(1704734229.286984) vcan0 0F6#FF640030000FFC00
(1704734229.287213) vcan0 0F8#FFFE715FC075BFFF
(1704734229.287422) vcan0 10D#B5A007FC0000
(1704734229.288545) vcan0 148#6EC131000480
(1704734229.289647) vcan0 0EE#320320AA00000ADD
(1704734229.289872) vcan0 0EF#4E217D0A2496172A
(1704734229.290127) vcan0 0F0#4E217D0A0A200000
(1704734229.290358) vcan0 132#FE7F36649A475000
(1704734229.290605) vcan0 133#007F285400060000
(1704734229.291563) vcan0 0FD#04C0FFFE0099A0FF
(1704734229.291669) vcan0 144#BA
(1704734229.291911) vcan0 177#3BC0C8002D028000
(1704734229.292143) vcan0 0F5#7D0BAFFFD7F87190
(1704734229.292315) vcan0 0FB#72107D00
(1704734229.296980) vcan0 0F6#FF640030000FFC00
(1704734229.297217) vcan0 0F8#FFFE715FC071BFFF
(1704734229.297419) vcan0 10D#0CB007FC0000
(1704734229.298542) vcan0 148#6EC131000480
(1704734229.299544) vcan0 0EE#320320AA00000BC0
(1704734229.299769) vcan0 0EF#4E217D0BB996172A
(1704734229.300009) vcan0 0F0#4E217D0B97200000
(1704734229.300243) vcan0 132#FE7F36649BC85000
(1704734229.300485) vcan0 133#007F2CE100060000
(1704734229.301462) vcan0 0FD#BDD0FFFE0099A0FF
(1704734229.301568) vcan0 144#BA
(1704734229.301804) vcan0 177#82D0C8002D028000
(1704734229.302034) vcan0 0F5#7D0CF7FFD7F87168
(1704734229.302200) vcan0 0FB#72107D00
(1704734229.306978) vcan0 0F6#FF640030000FFC00
(1704734229.307214) vcan0 0F8#FFFE717FC071BFFF
(1704734229.307421) vcan0 10D#04C007FC0000
(1704734229.308537) vcan0 148#6EC131000480
(1704734229.309519) vcan0 0EE#320320AA00000C93
(1704734229.309745) vcan0 0EF#4E217D0C4D96172A
(1704734229.309985) vcan0 0F0#4E217D0C63200000
(1704734229.310217) vcan0 132#FE7F36649C425000
(1704734229.310461) vcan0 133#007F30CD00060000
(1704734229.311435) vcan0 0FD#6BE0FFFE0099A0FF
(1704734229.311547) vcan0 144#BA
(1704734229.311784) vcan0 177#54E0C8002D028000
(1704734229.312015) vcan0 0F5#7D0DFBFFD7F87158
(1704734229.312186) vcan0 0FB#72107D00
(1704734229.316979) vcan0 0F6#FF640030000FFC00
(1704734229.317214) vcan0 0F8#FFFE717FC069BFFF
(1704734229.317417) vcan0 10D#BDD007FC0000
(1704734229.318536) vcan0 148#6EC131000480
(1704734229.319446) vcan0 0EE#320320AA00000D8E
(1704734229.319672) vcan0 0EF#4E217D0DD096172A
(1704734229.319909) vcan0 0F0#4E217D0DFE200000
(1704734229.320142) vcan0 132#FE7F36649DCD5000
(1704734229.320392) vcan0 133#007F347800060000
(1704734229.321436) vcan0 0FD#D2F0FFFE0099A0FF
(1704734229.321539) vcan0 144#BA
(1704734229.321778) vcan0 177#EDF0C8002D028000
(1704734229.322011) vcan0 0F5#7D0E7BFFD7F87168
(1704734229.322187) vcan0 0FB#72107D00
(1704734229.326981) vcan0 0F6#FF640030000FFC00
(1704734229.327214) vcan0 0F8#FFFE7187C069BFFF
(1704734229.327455) vcan0 37E#415500C003CF80FF
(1704734229.327661) vcan0 10D#6BE007FC0000
(1704734229.328569) vcan0 38E#2192FFC010200000
(1704734229.328810) vcan0 029#C54A8F0800F3
(1704734229.329008) vcan0 148#6F0131000480
(1704734229.329904) vcan0 0EE#320320AA00000EA9
(1704734229.330126) vcan0 0EF#4E217D0EED96170A
(1704734229.330366) vcan0 0F0#4E217D0E44200000
(1704734229.330604) vcan0 132#FE7F36649E415000
(1704734229.330843) vcan0 133#007F38BA00060000
(1704734229.331249) vcan0 36C#40AA49E9000801FE
(1704734229.331894) vcan0 0FD#7B00FFFE0099A0FF
(1704734229.332118) vcan0 0F5#7D0F3DFFD7F87168
(1704734229.332228) vcan0 144#BA
(1704734229.332396) vcan0 0FB#72107D00
(1704734229.332637) vcan0 177#4400C8002D028000
(1704734229.336979) vcan0 0F6#FF640030000FFC00
(1704734229.337210) vcan0 0F8#FFFE7137C071BFFF
(1704734229.337416) vcan0 10D#D2F007FC0000
(1704734229.338523) vcan0 148#6F0131000480
(1704734229.339579) vcan0 0EE#320320AA00000FB4
(1704734229.339799) vcan0 0EF#4E217D0F7096170A
(1704734229.340038) vcan0 0F0#4E217D0FD9200000
(1704734229.340275) vcan0 132#FE7F36649FCE5000
(1704734229.340520) vcan0 133#007F3C0F00060000
(1704734229.341540) vcan0 0FD#C210FFFE0099A0FF
(1704734229.341646) vcan0 144#BA
(1704734229.341881) vcan0 177#FD10C8002D028000
(1704734229.342110) vcan0 0F5#7D00DDFFD7F87170
(1704734229.342351) vcan0 373#C1805DB20000FFCB
(1704734229.342517) vcan0 0FB#72107D00
(1704734229.342757) vcan0 381#55FFFFD7055C487D
(1704734229.342996) vcan0 383#4412FFCF00200000
(1704734229.346985) vcan0 0F6#FF640030000FFC00
(1704734229.347219) vcan0 0F8#FFFE7137C075BFFF
(1704734229.347423) vcan0 10D#7B0007FC0000
(1704734229.348517) vcan0 148#6F0131000480
(1704734229.349623) vcan0 0EE#320320AA0000000F
(1704734229.349835) vcan0 0EF#4E217D001896170A
(1704734229.350077) vcan0 0F0#4E217D00B1200000
(1704734229.350315) vcan0 132#FE7F366490485000
(1704734229.350560) vcan0 133#007F00E200060000
(1704734229.351529) vcan0 0FD#1420FFFE0099A0FF
(1704734229.351637) vcan0 144#BA
(1704734229.351874) vcan0 177#2B20C8002D028000
(1704734229.352106) vcan0 0F5#7D019BFFD7F87170
(1704734229.352337) vcan0 382#622C7F1663140063
(1704734229.352502) vcan0 0FB#72107D00
(1704734229.354471) vcan0 375#022900BFF264FFFF
(1704734229.354694) vcan0 376#12DB9903F93F4254
(1704734229.354944) vcan0 440#0031F9001FFEFF96
(1704734229.355192) vcan0 4CE#5FFFFFFFDFFFE0BC
(1704734229.356975) vcan0 0F6#FF640030000FFC00
(1704734229.357215) vcan0 0F8#FFFE7137C071BFFF
(1704734229.357419) vcan0 10D#C21007FC0000
(1704734229.358006) vcan0 4FB#82000400002C
(1704734229.358514) vcan0 148#6F0131000480
(1704734229.359420) vcan0 0EE#320320AA00000112
(1704734229.359646) vcan0 0EF#4E217D010296172A
(1704734229.359889) vcan0 0F0#4E217D012C200000
(1704734229.360127) vcan0 132#FE7F366491C75000
(1704734229.360371) vcan0 133#007F045700060000
(1704734229.361361) vcan0 0FD#AD30FFFE0099A0FF
(1704734229.361462) vcan0 144#BA
(1704734229.361701) vcan0 177#9230C8002D028000
(1704734229.361963) vcan0 0F5#7D02F3FFD7F87148
(1704734229.362179) vcan0 3EF#7C10DC15B00F60
(1704734229.362348) vcan0 0FB#71C07D00
(1704734229.362502) vcan0 4DB#AE1ACE
(1704734229.366983) vcan0 0F6#FF640030000FFC00
(1704734229.367215) vcan0 0F8#FFFE7117C071BFFF
(1704734229.367418) vcan0 10D#142007FC0000
(1704734229.367656) vcan0 466#141C7DA5F4EE7B14
(1704734229.368511) vcan0 148#6F0131000480
(1704734229.369705) vcan0 0EE#320320AA00000235
(1704734229.369931) vcan0 0EF#4E217D02B896172A
(1704734229.370178) vcan0 0F0#4E217D0296200000
(1704734229.370412) vcan0 132#FE7F3664924B5000
(1704734229.370652) vcan0 133#007F089500060000
(1704734229.371648) vcan0 0FD#A540FFFE0099A0FF
(1704734229.371757) vcan0 144#BA
(1704734229.371989) vcan0 0F5#7D0332FFD7F87168
(1704734229.372230) vcan0 177#9A40C8002D028000
(1704734229.372391) vcan0 0FB#71C07D00
(1704734229.376981) vcan0 0F6#FF640030000FFC00
(1704734229.377215) vcan0 0F8#FFFE7117C065BFFF
(1704734229.377416) vcan0 10D#AD3007FC0000
(1704734229.378516) vcan0 148#6F0130000480
(1704734229.379517) vcan0 0EE#320320AA00000328
(1704734229.379745) vcan0 0EF#4E217D032596172A
(1704734229.379992) vcan0 0F0#4E217D030B200000
(1704734229.380228) vcan0 132#FE7F366493C45000
(1704734229.380486) vcan0 133#007F0C2000060000
(1704734229.381468) vcan0 0FD#1C50FFFE0099A0FF
(1704734229.381577) vcan0 144#BA
(1704734229.381818) vcan0 177#2350C8002D028000
(1704734229.382057) vcan0 0F5#7D04FDFFD7F87168
(1704734229.382221) vcan0 0FB#71C07D00
(1704734229.386983) vcan0 0F6#FF640030000FFC00
(1704734229.387214) vcan0 0F8#FFFE7147C071BFFF
(1704734229.387420) vcan0 10D#A54007FC0000
(1704734229.388508) vcan0 148#6F0130000480
(1704734229.389541) vcan0 0EE#320320AA0000047B
(1704734229.389771) vcan0 0EF#4E217D04D196172A
(1704734229.390019) vcan0 0F0#4E217D04FF200000
(1704734229.390257) vcan0 132#FE7F3664944E5000
(1704734229.390502) vcan0 133#007F100C00060000
(1704734229.391435) vcan0 0FD#CA60FFFE0099A0FF
(1704734229.391542) vcan0 144#BA
(1704734229.391778) vcan0 177#F560C8002D028000
(1704734229.392012) vcan0 0F5#7D053CFFD7F87148
(1704734229.392188) vcan0 0FB#71C07D00
(1704734229.396977) vcan0 0F6#FF640030000FFC00
(1704734229.397217) vcan0 0F8#FFFE7147C06DBFFF
(1704734229.397417) vcan0 10D#1C5007FC0000
(1704734229.398502) vcan0 148#6EC130000480
(1704734229.399414) vcan0 0EE#320320AA00000566
(1704734229.399644) vcan0 0EF#4E217D054C96172A
(1704734229.399888) vcan0 0F0#4E217D0562200000
(1704734229.400122) vcan0 132#FE7F366495C15000
(1704734229.400369) vcan0 133#007F14B900060000
(1704734229.401346) vcan0 0FD#7370FFFE0099A0FF
(1704734229.401457) vcan0 144#BA
(1704734229.401690) vcan0 177#4C70C8002D028000
(1704734229.401966) vcan0 0F5#7D063BFFD7F87158
(1704734229.402186) vcan0 0FB#71C07D00
(1704734229.406984) vcan0 0F6#FF640030000FFC00
(1704734229.407214) vcan0 0F8#FFFE7187C071BFFF
(1704734229.407427) vcan0 10D#CA6007FC0000
(1704734229.408499) vcan0 148#6EC130000480
(1704734229.409631) vcan0 0EE#320320AA00000641
(1704734229.409854) vcan0 0EF#4E217D06F696172A
(1704734229.410101) vcan0 0F0#4E217D06D8200000
(1704734229.410334) vcan0 132#FE7F3664964D5000
(1704734229.410582) vcan0 133#007F187B00060000
(1704734229.411534) vcan0 0FD#DA80FFFE0099A0FF
(1704734229.411638) vcan0 144#BA
(1704734229.411879) vcan0 177#E580C8002D028000
(1704734229.412115) vcan0 0F5#7D077DFFD7F87158
(1704734229.412293) vcan0 0FB#71C07D00
(1704734229.416979) vcan0 0F6#FF640030000FFC00
(1704734229.417215) vcan0 0F8#FFFE7187C071BFFF
(1704734229.417417) vcan0 10D#737007FC0000
(1704734229.418497) vcan0 148#6EC130000480
(1704734229.419531) vcan0 0EE#320320AA0000075C
(1704734229.419771) vcan0 0EF#4E217D076B96172A
(1704734229.420006) vcan0 0F0#4E217D0745200000
(1704734229.420245) vcan0 132#FE7F366497C25000
(1704734229.420488) vcan0 133#007F1CCE00060000
(1704734229.421512) vcan0 0FD#6390FFFE0099A0FF
(1704734229.421619) vcan0 144#BA
(1704734229.421854) vcan0 177#5C90C8002D028000
(1704734229.422084) vcan0 0F5#7D08B8FFD7F87158
(1704734229.422307) vcan0 0FB#71C07D00
(1704734229.426979) vcan0 0F6#FF640030000FFC00
(1704734229.427215) vcan0 0F8#FFFE718FC071BFFF
(1704734229.427459) vcan0 37E#414A00C003CF80FF
(1704734229.427666) vcan0 10D#DA8007FC0000
(1704734229.428532) vcan0 38E#2192FFC010200000
(1704734229.428781) vcan0 029#C54A807400F3
(1704734229.428904) vcan0 389#0780
(1704734229.429175) vcan0 148#6EC130000480
(1704734229.429739) vcan0 0EE#320320AA000008E7
(1704734229.429975) vcan0 0EF#4E217D088496170A
(1704734229.430216) vcan0 0F0#4E217D082D200000
(1704734229.430444) vcan0 132#FE7F366498445000
(1704734229.430686) vcan0 133#007F202300060000
(1704734229.431249) vcan0 36C#40AA49E9000802D9
(1704734229.431385) vcan0 387#00
(1704734229.431760) vcan0 0FD#B5A0FFFE0099A0FF
(1704734229.431981) vcan0 0F5#7D09EEFFD7F87180
(1704734229.432095) vcan0 144#BA
(1704734229.432261) vcan0 0FB#71C07D00
(1704734229.432503) vcan0 177#8AA0C8002D028000
(1704734229.436982) vcan0 0F6#FF640030000FFC00
(1704734229.437217) vcan0 0F8#FFFE714FC071BFFF
(1704734229.437418) vcan0 10D#639007FC0000
(1704734229.438492) vcan0 148#6EC130000480
(1704734229.439409) vcan0 0EE#320320AA000009FA
(1704734229.439637) vcan0 0EF#4E217D091996170A
(1704734229.439880) vcan0 0F0#4E217D09B0200000
(1704734229.440116) vcan0 132#FE7F366499CB5000
(1704734229.440359) vcan0 133#007F249600060000
(1704734229.441502) vcan0 0FD#0CB0FFFE0099A0FF
(1704734229.441609) vcan0 144#BA
(1704734229.441849) vcan0 177#33B0C8002D028000
(1704734229.442086) vcan0 0F5#7D0A7EFFD7F87168
(1704734229.442324) vcan0 373#C180B25D0000FFCB
(1704734229.442489) vcan0 0FB#71C07D00
(1704734229.442723) vcan0 381#55FFFFD7055C487D
(1704734229.442967) vcan0 383#4412FFCF00200000
(1704734229.446977) vcan0 0F6#FF640030000FFC00
(1704734229.447211) vcan0 0F8#FFFE714FC071BFFF
(1704734229.447420) vcan0 10D#B5A007FC0000
(1704734229.448487) vcan0 148#6EC130000480
(1704734229.449720) vcan0 0EE#320320AA00000ADD
(1704734229.449946) vcan0 0EF#4E217D0AA396170A
(1704734229.450191) vcan0 0F0#4E217D0A0A200000
(1704734229.450425) vcan0 132#FE7F36649A475000
(1704734229.450669) vcan0 133#007F285400060000
(1704734229.451732) vcan0 0FD#04C0FFFE0099A0FF
(1704734229.451840) vcan0 144#BA
(1704734229.452069) vcan0 0F5#7D0BBFFFD7F87148
(1704734229.452312) vcan0 177#3BC0C8002D028000
(1704734229.452476) vcan0 0FB#71C07D00
(1704734229.452705) vcan0 382#622C7F1663140063
(1704734229.452820) vcan0 384#00
(1704734229.454524) vcan0 375#022900BFF264FFFF
(1704734229.454755) vcan0 376#12DB9903F93F4254
(1704734229.455002) vcan0 440#003117101FFEFF96
(1704734229.455247) vcan0 4CE#5FFFFFFFDFFFE1A1
(1704734229.456982) vcan0 0F6#FF640030000FFC00
(1704734229.457216) vcan0 0F8#FFFE714FC06DBFFF
(1704734229.457421) vcan0 10D#0CB007FC0000
(1704734229.457643) vcan0 372#00000000061B90
(1704734229.457915) vcan0 388#1FFC03FFFFFF01
(1704734229.458118) vcan0 4FB#830004000071
(1704734229.458471) vcan0 148#6EC130000480
(1704734229.459570) vcan0 0EE#320320AA00000BC0
(1704734229.459795) vcan0 0EF#4E217D0BB996172A
(1704734229.460035) vcan0 0F0#4E217D0B97200000
(1704734229.460279) vcan0 132#FE7F36649BC85000
(1704734229.460506) vcan0 133#007F2CE100060000
(1704734229.461637) vcan0 0FD#BDD0FFFE0099A0FF
(1704734229.461741) vcan0 144#BA
(1704734229.461970) vcan0 0F5#7D0CBDFFD7F87158
(1704734229.462207) vcan0 177#82D0C8002D028000
(1704734229.462376) vcan0 0FB#72107D00
(1704734229.462595) vcan0 3EF#AA20DC15B00F60
(1704734229.462778) vcan0 4DB#AE1ACD
(1704734229.466980) vcan0 0F6#FF640030000FFC00
(1704734229.467216) vcan0 0F8#FFFE711FC071BFFF
(1704734229.467425) vcan0 10D#04C007FC0000
(1704734229.467665) vcan0 466#145B475F60FB5FAB
(1704734229.468479) vcan0 148#6EC130000480
(1704734229.469612) vcan0 0EE#320320AA00000C93
(1704734229.469833) vcan0 0EF#4E217D0C4D96172A
(1704734229.470078) vcan0 0F0#4E217D0C63200000
(1704734229.470311) vcan0 132#FE7F36649C425000
(1704734229.470553) vcan0 133#007F30CD00060000
(1704734229.471661) vcan0 0FD#6BE0FFFE0099A0FF
(1704734229.471762) vcan0 144#BA
(1704734229.472000) vcan0 0F5#7D0D94FFD7F87170
(1704734229.472237) vcan0 177#54E0C8002D028000
(1704734229.472399) vcan0 0FB#72107D00
(1704734229.476980) vcan0 0F6#FF640030000FFC00
(1704734229.477212) vcan0 0F8#FFFE711FC06DBFFF
(1704734229.477415) vcan0 10D#BDD007FC0000
(1704734229.478475) vcan0 148#6EC130000480
(1704734229.479495) vcan0 0EE#320320AA00000D8E
(1704734229.479718) vcan0 0EF#4E217D0DD096172A
(1704734229.479959) vcan0 0F0#4E217D0DFE200000
(1704734229.480196) vcan0 132#FE7F36649DCD5000
(1704734229.480433) vcan0 133#007F347800060000
(1704734229.481586) vcan0 0FD#D2F0FFFE0099A0FF
(1704734229.481690) vcan0 144#BA
(1704734229.481928) vcan0 177#EDF0C8002D028000
(1704734229.482170) vcan0 0F5#7D0E93FFD7F87160
(1704734229.482389) vcan0 0FB#72107D00
(1704734229.486984) vcan0 0F6#FF640030000FFC00
(1704734229.487217) vcan0 0F8#FFFE713FC075BFFF
(1704734229.487422) vcan0 10D#6BE007FC0000
(1704734229.488470) vcan0 148#6EC130000480
(1704734229.489711) vcan0 0EE#320320AA00000EA9
(1704734229.489930) vcan0 0EF#4E217D0E6A96172A
(1704734229.490179) vcan0 0F0#4E217D0E44200000
(1704734229.490415) vcan0 132#FE7F36649E415000
(1704734229.490657) vcan0 133#007F38BA00060000
(1704734229.491730) vcan0 0FD#7B00FFFE0099A0FF
(1704734229.491835) vcan0 144#BA
(1704734229.492071) vcan0 0F5#7D0FD5FFD7F87160
(1704734229.492314) vcan0 177#4400C8002D028000
(1704734229.492481) vcan0 0FB#72107D00
(1704734229.496985) vcan0 0F6#FF640030000FFC00
(1704734229.497215) vcan0 0F8#FFFE713FC06DBFFF
(1704734229.497419) vcan0 10D#D2F007FC0000
(1704734229.498462) vcan0 148#6EC12F000480
(1704734229.499573) vcan0 0EE#320320AA00000FB4
(1704734229.499805) vcan0 0EF#4E217D0FF796172A
(1704734229.500048) vcan0 0F0#4E217D0FD9200000
(1704734229.500288) vcan0 132#FE7F36649FCE5000
(1704734229.500531) vcan0 133#007F3C0F00060000
(1704734229.501598) vcan0 0FD#C210FFFE0099A0FF
(1704734229.501703) vcan0 144#BA
(1704734229.501945) vcan0 177#FD10C8002D028000
(1704734229.502186) vcan0 0F5#7D007FFFD7F87148
(1704734229.502388) vcan0 0FB#72107D00
(1704734229.506981) vcan0 0F6#FF640030000FFC00
(1704734229.507215) vcan0 0F8#FFFE7177C06DBFFF
(1704734229.507419) vcan0 10D#7B0007FC0000
(1704734229.508460) vcan0 148#6EC12F000480
(1704734229.509577) vcan0 0EE#320320AA0000000F
(1704734229.509810) vcan0 0EF#4E217D009F96172A
(1704734229.510052) vcan0 0F0#4E217D00B1200000
(1704734229.510293) vcan0 132#FE7F366490485000
(1704734229.510536) vcan0 133#007F00E200060000
(1704734229.511577) vcan0 0FD#1420FFFE0099A0FF
(1704734229.511687) vcan0 144#BA
(1704734229.511929) vcan0 177#2B20C8002D028000
(1704734229.512160) vcan0 0F5#7D0139FFD7F87148
(1704734229.512326) vcan0 0FB#72107D00
(1704734229.516979) vcan0 0F6#FF640030000FFC00
(1704734229.517217) vcan0 0F8#FFFE7177C06DBFFF
(1704734229.517424) vcan0 10D#C21007FC0000
(1704734229.518459) vcan0 148#6EC12F000480
(1704734229.519439) vcan0 0EE#320320AA00000112
(1704734229.519668) vcan0 0EF#4E217D010296172A
(1704734229.519909) vcan0 0F0#4E217D012C200000
(1704734229.520152) vcan0 132#FE7F366491C75000
(1704734229.520395) vcan0 133#007F045700060000
(1704734229.521516) vcan0 0FD#AD30FFFE0099A0FF
(1704734229.521640) vcan0 144#BA
(1704734229.521864) vcan0 177#9230C8002D028000
(1704734229.522100) vcan0 0F5#7D0274FFD7F87168
(1704734229.522295) vcan0 0FB#72107D00
(1704734229.526983) vcan0 0F6#FF640030000FFC00
(1704734229.527216) vcan0 0F8#FFFE717FC075BFFF
(1704734229.527460) vcan0 37E#415200C003CF80FF
(1704734229.527663) vcan0 10D#142007FC0000
(1704734229.528489) vcan0 38E#2192FFC010200000
(1704734229.528729) vcan0 029#C54A811E00F3
(1704734229.528939) vcan0 148#6F012F000480
(1704734229.529912) vcan0 0EE#320320AA00000235
(1704734229.530131) vcan0 0EF#4E217D02B896172A
(1704734229.530381) vcan0 0F0#4E217D0296200000
(1704734229.530620) vcan0 132#FE7F3664924B5000
(1704734229.530863) vcan0 133#007F089500060000
(1704734229.531258) vcan0 36C#405549E9000803CD
(1704734229.531964) vcan0 0F5#7D0332FFD7F87168
(1704734229.532126) vcan0 0FB#72107D00
(1704734229.532370) vcan0 0FD#A540FFFE0099A0FF
(1704734229.532486) vcan0 144#BA
(1704734229.532725) vcan0 177#9A40C8002D028000
(1704734229.536984) vcan0 0F6#FF640030000FFC00
(1704734229.537210) vcan0 0F8#FFFE715FC075BFFF
(1704734229.537420) vcan0 10D#AD3007FC0000
(1704734229.538446) vcan0 148#6F012F000480
(1704734229.539556) vcan0 0EE#320320AA00000328
(1704734229.539787) vcan0 0EF#4E217D032596172A
(1704734229.540033) vcan0 0F0#4E217D030B200000
(1704734229.540267) vcan0 132#FE7F366493C45000
(1704734229.540511) vcan0 133#007F0C2000060000
(1704734229.541582) vcan0 0FD#1C50FFFE0099A0FF
(1704734229.541706) vcan0 144#BA
(1704734229.541928) vcan0 177#2350C8002D028000
(1704734229.542172) vcan0 0F5#7D0415FFD7F87160
(1704734229.542408) vcan0 373#C180B25D0000FFCB
(1704734229.542584) vcan0 0FB#72107D00
(1704734229.542810) vcan0 381#55FFFFD7055C487D
(1704734229.543052) vcan0 383#4411FFCE00200000
(1704734229.546977) vcan0 0F6#FF640030000FFC00
(1704734229.547216) vcan0 0F8#FFFE715FC06DBFFF
(1704734229.547421) vcan0 10D#A54007FC0000
(1704734229.548442) vcan0 148#6F012F000480
(1704734229.549591) vcan0 0EE#320320AA0000047B
(1704734229.549816) vcan0 0EF#4E217D045696170A
(1704734229.550064) vcan0 0F0#4E217D04FF200000
(1704734229.550298) vcan0 132#FE7F3664944E5000
(1704734229.550549) vcan0 133#007F100C00060000
(1704734229.551545) vcan0 0FD#CA60FFFE0099A0FF
(1704734229.551666) vcan0 144#BA
(1704734229.551888) vcan0 177#F560C8002D028000
(1704734229.552133) vcan0 0F5#7D05F1FFD7F87158
(1704734229.552306) vcan0 0FB#72107D00
(1704734229.552532) vcan0 382#622C7F1663140063
(1704734229.554471) vcan0 375#022900BFF264FFFF
(1704734229.554701) vcan0 376#12DB9903F93F4254
(1704734229.554944) vcan0 440#003138201FFEFF96
(1704734229.555188) vcan0 4CE#5FFFFFFFDFFFE286
(1704734229.556979) vcan0 0F6#FF640030000FFC00
(1704734229.557218) vcan0 0F8#FFFE715FC06DBFFF
(1704734229.557415) vcan0 10D#1C5007FC0000
(1704734229.557827) vcan0 4FB#8400040000FF
(1704734229.558438) vcan0 148#6F012F000480
(1704734229.559417) vcan0 0EE#320320AA00000566
(1704734229.559664) vcan0 0EF#4E217D054C96172A
(1704734229.559918) vcan0 0F0#4E217D0562200000
(1704734229.560150) vcan0 132#FE7F366495C15000
(1704734229.560399) vcan0 133#007F14B900060000
(1704734229.561387) vcan0 0FD#7370FFFE0099A0FF
(1704734229.561466) vcan0 144#BA
(1704734229.561754) vcan0 177#4C70C8002D028000
(1704734229.561987) vcan0 0F5#7D06AFFFD7F87138
(1704734229.562199) vcan0 3EF#1330DC15B00F60
(1704734229.562373) vcan0 0FB#71C07D00
(1704734229.562525) vcan0 4DB#AE1ACD
(1704734229.567009) vcan0 0F6#FF640030000FFC00
(1704734229.567240) vcan0 0F8#FFFE7127C071BFFF
(1704734229.567439) vcan0 10D#CA6007FC0000
(1704734229.567671) vcan0 466#149A1119CB094343
(1704734229.568463) vcan0 148#6F012F000480
(1704734229.569709) vcan0 0EE#320320AA00000641
(1704734229.569930) vcan0 0EF#4E217D06F696172A
(1704734229.570170) vcan0 0F0#4E217D06D8200000
(1704734229.570406) vcan0 132#FE7F3664964D5000
(1704734229.570646) vcan0 133#007F187B00060000
(1704734229.571650) vcan0 0FD#DA80FFFE0099A0FF
(1704734229.571728) vcan0 144#BA
(1704734229.571982) vcan0 177#E580C8002D028000
(1704734229.572215) vcan0 0F5#7D0758FFD7F87140
(1704734229.572406) vcan0 0FB#71C07D00
(1704734229.577011) vcan0 0F6#FF640030000FFC00
(1704734229.577237) vcan0 0F8#FFFE7127C06DBFFF
(1704734229.577447) vcan0 10D#737007FC0000
(1704734229.578457) vcan0 148#6F012F000480
(1704734229.579554) vcan0 0EE#320320AA0000075C
(1704734229.579777) vcan0 0EF#4E217D076B96172A
(1704734229.580017) vcan0 0F0#4E217D0745200000
(1704734229.580268) vcan0 132#FE7F366497C25000
(1704734229.580502) vcan0 133#007F1CCE00060000
(1704734229.581534) vcan0 0FD#6390FFFE0099A0FF
(1704734229.581608) vcan0 144#BA
(1704734229.581874) vcan0 177#5C90C8002D028000
(1704734229.582101) vcan0 0F5#7D089DFFD7F87140
(1704734229.582316) vcan0 0FB#71C07D00
(1704734229.587017) vcan0 0F6#FF640030000FFC00
(1704734229.587238) vcan0 0F8#FFFE7147C075BFFF
(1704734229.587444) vcan0 10D#DA8007FC0000
(1704734229.588456) vcan0 148#6F012F000480
(1704734229.589530) vcan0 0EE#320320AA000008E7
(1704734229.589749) vcan0 0EF#4E217D080396172A
(1704734229.589999) vcan0 0F0#4E217D082D200000
(1704734229.590223) vcan0 132#FE7F366498445000
(1704734229.590470) vcan0 133#007F202300060000
(1704734229.591419) vcan0 0FD#B5A0FFFE0099A0FF
(1704734229.591496) vcan0 144#BA
(1704734229.591763) vcan0 177#8AA0C8002D028000
(1704734229.592005) vcan0 0F5#7D0933FFD7F87148
(1704734229.592217) vcan0 0FB#71C07D00
(1704734229.597007) vcan0 0F6#FF640030000FFC00
(1704734229.597241) vcan0 0F8#FFFE7147C071BFFF
(1704734229.597433) vcan0 10D#639007FC0000
(1704734229.598452) vcan0 148#6F012F000480
(1704734229.599432) vcan0 0EE#320320AA000009FA
(1704734229.599655) vcan0 0EF#4E217D099E96172A
(1704734229.599900) vcan0 0F0#4E217D09B0200000
(1704734229.600138) vcan0 132#FE7F366499CB5000
(1704734229.600378) vcan0 133#007F249600060000
(1704734229.601358) vcan0 0FD#0CB0FFFE0099A0FF
(1704734229.601434) vcan0 144#BA
(1704734229.601706) vcan0 177#33B0C8002D028000
(1704734229.601986) vcan0 0F5#7D0A34FFD7F87158
(1704734229.602209) vcan0 0FB#71C07D00
(1704734229.607011) vcan0 0F6#FF640030000FFC00
(1704734229.607236) vcan0 0F8#FFFE717FC075BFFF
(1704734229.607442) vcan0 10D#B5A007FC0000
(1704734229.608444) vcan0 148#6F012F000480
(1704734229.609671) vcan0 0EE#320320AA00000ADD
(1704734229.609891) vcan0 0EF#4E217D0A2496172A
(1704734229.610136) vcan0 0F0#4E217D0A0A200000
(1704734229.610387) vcan0 132#FE7F36649A475000
(1704734229.610615) vcan0 133#007F285400060000
(1704734229.611578) vcan0 0FD#04C0FFFE0099A0FF
(1704734229.611653) vcan0 144#BA
(1704734229.611925) vcan0 177#3BC0C8002D028000
(1704734229.612153) vcan0 0F5#7D0BD0FFD7F87160
(1704734229.612325) vcan0 0FB#71C07D00
(1704734229.617010) vcan0 0F6#FF640030000FFC00
(1704734229.617236) vcan0 0F8#FFFE717FC069BFFF
(1704734229.617447) vcan0 10D#0CB007FC0000
(1704734229.618444) vcan0 148#6F012F000480
(1704734229.619572) vcan0 0EE#320320AA00000BC0
(1704734229.619791) vcan0 0EF#4E217D0BB996172A
(1704734229.620026) vcan0 0F0#4E217D0B97200000
(1704734229.620264) vcan0 132#FE7F36649BC85000
(1704734229.620511) vcan0 133#007F2CE100060000
(1704734229.621541) vcan0 0FD#BDD0FFFE0099A0FF
(1704734229.621653) vcan0 144#BA
(1704734229.621888) vcan0 177#82D0C8002D028000
(1704734229.622117) vcan0 0F5#7D0C70FFD7F87148
(1704734229.622315) vcan0 0FB#71C07D00
(1704734229.627009) vcan0 0F6#FF640030000FFC00
(1704734229.627233) vcan0 0F8#FFFE718FC075BFFF
(1704734229.627472) vcan0 37E#414700C003CF80FF
(1704734229.627686) vcan0 10D#04C007FC0000
(1704734229.628473) vcan0 38E#2192FFC010200000
(1704734229.628719) vcan0 029#C54A82A000F3
(1704734229.628923) vcan0 148#6F012F000480
(1704734229.629778) vcan0 0EE#320320AA00000C93
(1704734229.629999) vcan0 0EF#4E217D0C4D96172A
(1704734229.630240) vcan0 0F0#4E217D0C63200000
(1704734229.630477) vcan0 132#FE7F36649C425000
(1704734229.630718) vcan0 133#007F30CD00060000
(1704734229.631283) vcan0 36C#405549E90008049E
(1704734229.631785) vcan0 0FD#6BE0FFFE0099A0FF
(1704734229.632026) vcan0 0F5#7D0DFBFFD7F87158
(1704734229.632127) vcan0 144#BA
(1704734229.632292) vcan0 0FB#71C07D00
(1704734229.632532) vcan0 177#54E0C8002D028000
(1704734229.637014) vcan0 0F6#FF640030000FFC00
(1704734229.637230) vcan0 0F8#FFFE7157C06DBFFF
(1704734229.637434) vcan0 10D#BDD007FC0000
(1704734229.638433) vcan0 148#6F0130000480
(1704734229.639482) vcan0 0EE#320320AA00000D8E
(1704734229.639702) vcan0 0EF#4E217D0DD096172A
(1704734229.639943) vcan0 0F0#4E217D0DFE200000
(1704734229.640185) vcan0 132#FE7F36649DCD5000
(1704734229.640419) vcan0 133#007F347800060000
(1704734229.641476) vcan0 0FD#D2F0FFFE0099A0FF
(1704734229.641551) vcan0 144#BA
(1704734229.641822) vcan0 177#EDF0C8002D028000
(1704734229.642066) vcan0 0F5#7D0E14FFD7F87140
(1704734229.642228) vcan0 0FB#71C07D00
(1704734229.642455) vcan0 373#C180B25D0000FFCB
(1704734229.642691) vcan0 381#AAFFFFD7055C487D
(1704734229.642936) vcan0 383#4412FFCF00200000
(1704734229.647045) vcan0 0F6#FF640030000FFC00
(1704734229.647232) vcan0 0F8#FFFE7157C075BFFF
(1704734229.647440) vcan0 10D#6BE007FC0000
(1704734229.648461) vcan0 148#6F0130000480
(1704734229.649750) vcan0 0EE#320320AA00000EA9
(1704734229.649948) vcan0 0EF#4E217D0EED96170A
(1704734229.650189) vcan0 0F0#4E217D0E44200000
(1704734229.650425) vcan0 132#FE7F36649E415000
(1704734229.650669) vcan0 133#007F38BA00060000
(1704734229.651671) vcan0 0FD#7B00FFFE0099A0FF
(1704734229.651758) vcan0 144#BA
(1704734229.652002) vcan0 0F5#7D0F52FFD7F87140
(1704734229.652233) vcan0 177#4400C8002D028000
(1704734229.652399) vcan0 0FB#71C07D00
(1704734229.652630) vcan0 382#622C7F1663140063
(1704734229.654493) vcan0 375#022900BFF264FFFF
(1704734229.654696) vcan0 376#12DB9903F93F4254
(1704734229.654936) vcan0 440#0031F1301FFEFF95
(1704734229.655188) vcan0 4CE#5FFFFFFFDFFFE39B
(1704734229.657073) vcan0 0F6#FF640030000FFC00
(1704734229.657235) vcan0 0F8#FFFE7157C06DBFFF
(1704734229.657442) vcan0 10D#D2F007FC0000
(1704734229.657916) vcan0 4FB#8500040000A2
(1704734229.658445) vcan0 148#6F0130000480
(1704734229.659604) vcan0 0EE#320320AA00000FB4
(1704734229.659799) vcan0 0EF#4E217D0FF796172A
(1704734229.660045) vcan0 0F0#4E217D0FD9200000
(1704734229.660290) vcan0 132#FE7F36649FCE5000
(1704734229.660516) vcan0 133#007F3C0F00060000
(1704734229.661533) vcan0 0FD#C210FFFE0099A0FF
(1704734229.661604) vcan0 144#BA
(1704734229.661847) vcan0 177#FD10C8002D028000
(1704734229.662085) vcan0 0F5#7D0010FFD7F87160
(1704734229.662300) vcan0 3EF#1B40DC15B00F60
(1704734229.662469) vcan0 0FB#71C07D00
(1704734229.662602) vcan0 4DB#AE2ACE
(1704734229.667009) vcan0 0F6#FF640030000FFC00
(1704734229.667221) vcan0 0F8#FFFE711FC06DBFFF
(1704734229.667422) vcan0 10D#7B0007FC0000
(1704734229.667650) vcan0 466#14D9DAD2371627DA
(1704734229.668424) vcan0 148#6F0130000480
(1704734229.669632) vcan0 0EE#320320AA0000000F
(1704734229.669848) vcan0 0EF#4E217D009F96172A
(1704734229.670078) vcan0 0F0#4E217D00B1200000
(1704734229.670321) vcan0 132#FE7F366490485000
(1704734229.670567) vcan0 133#007F00E200060000
(1704734229.671571) vcan0 0FD#1420FFFE0099A0FF
(1704734229.671658) vcan0 144#BA
(1704734229.671902) vcan0 177#2B20C8002D028000
(1704734229.672139) vcan0 0F5#7D0156FFD7F87160
(1704734229.672303) vcan0 0FB#71C07D00
(1704734229.676996) vcan0 0F6#FF640030000FFC00
(1704734229.677212) vcan0 0F8#FFFE711FC069BFFF
(1704734229.677417) vcan0 10D#C21007FC0000
(1704734229.678398) vcan0 148#6F0130000480
(1704734229.679403) vcan0 0EE#320320AA00000112
(1704734229.679632) vcan0 0EF#4E217D010296172A
(1704734229.679871) vcan0 0F0#4E217D012C200000
(1704734229.680116) vcan0 132#FE7F366491C75000
(1704734229.680365) vcan0 133#007F045700060000
(1704734229.681398) vcan0 0FD#AD30FFFE0099A0FF
(1704734229.681503) vcan0 144#BA
(1704734229.681742) vcan0 177#9230C8002D028000
(1704734229.681973) vcan0 0F5#7D02F3FFD7F87148
(1704734229.682185) vcan0 0FB#71C07D00
(1704734229.686976) vcan0 0F6#FF640030000FFC00
(1704734229.687214) vcan0 0F8#FFFE7147C071BFFF
(1704734229.687419) vcan0 10D#142007FC0000
(1704734229.688392) vcan0 148#6F0130000480
(1704734229.689655) vcan0 0EE#320320AA00000235
(1704734229.689880) vcan0 0EF#4E217D02B896172A
(1704734229.690123) vcan0 0F0#4E217D0296200000
(1704734229.690357) vcan0 132#FE7F3664924B5000
(1704734229.690600) vcan0 133#007F089500060000
(1704734229.691558) vcan0 0FD#A540FFFE0099A0FF
(1704734229.691661) vcan0 144#BA
(1704734229.691905) vcan0 177#9A40C8002D028000
(1704734229.692136) vcan0 0F5#7D0378FFD7F87158
(1704734229.692310) vcan0 0FB#71C07D00
(1704734229.696980) vcan0 0F6#FF640030000FFC00
(1704734229.697210) vcan0 0F8#FFFE7147C071BFFF
(1704734229.697410) vcan0 10D#AD3007FC0000
(1704734229.698387) vcan0 148#6F0130000480
(1704734229.699511) vcan0 0EE#320320AA00000328
(1704734229.699742) vcan0 0EF#4E217D032596172A
(1704734229.699987) vcan0 0F0#4E217D030B200000
(1704734229.700224) vcan0 132#FE7F366493C45000
(1704734229.700470) vcan0 133#007F0C2000060000
(1704734229.701421) vcan0 0FD#1C50FFFE0099A0FF
(1704734229.701527) vcan0 144#BA
(1704734229.701773) vcan0 177#2350C8002D028000
(1704734229.702006) vcan0 0F5#7D047AFFD7F87148
(1704734229.702186) vcan0 0FB#71C07D00
(1704734229.706980) vcan0 0F6#FF640030000FFC00
(1704734229.707213) vcan0 0F8#FFFE716FC075BFFF
(1704734229.707419) vcan0 10D#A54007FC0000
(1704734229.708383) vcan0 148#6F0130000480
(1704734229.709531) vcan0 0EE#320320AA0000047B
(1704734229.709755) vcan0 0EF#4E217D04D196172A
(1704734229.710004) vcan0 0F0#4E217D04FF200000
(1704734229.710238) vcan0 132#FE7F3664944E5000
(1704734229.710487) vcan0 133#007F100C00060000
(1704734229.711433) vcan0 0FD#CA60FFFE0099A0FF
(1704734229.711541) vcan0 144#BA
(1704734229.711791) vcan0 177#F560C8002D028000
(1704734229.712014) vcan0 0F5#7D053CFFD7F87148
(1704734229.712187) vcan0 0FB#71C07D00
(1704734229.716980) vcan0 0F6#FF640030000FFC00
(1704734229.717215) vcan0 0F8#FFFE716FC071BFFF
(1704734229.717418) vcan0 10D#1C5007FC0000
(1704734229.718379) vcan0 148#6F0130000480
(1704734229.719415) vcan0 0EE#320320AA00000566
(1704734229.719645) vcan0 0EF#4E217D054C96172A
(1704734229.719890) vcan0 0F0#4E217D0562200000
(1704734229.720128) vcan0 132#FE7F366495C15000
(1704734229.720370) vcan0 133#007F14B900060000
(1704734229.721407) vcan0 0FD#7370FFFE0099A0FF
(1704734229.721509) vcan0 144#BA
(1704734229.721745) vcan0 177#4C70C8002D028000
(1704734229.721983) vcan0 0F5#7D061EFFD7F87140
(1704734229.722187) vcan0 0FB#71C07D00
(1704734229.726980) vcan0 0F6#FF640030000FFC00
(1704734229.727223) vcan0 0F8#FFFE718FC06DBFFF
(1704734229.727466) vcan0 37E#415500C003CF80FF
(1704734229.727733) vcan0 10D#CA6007FC0000
(1704734229.728415) vcan0 38E#2192FFC010200000
(1704734229.728665) vcan0 029#C54A83CA00F3
(1704734229.728868) vcan0 148#6F0130000480
(1704734229.729889) vcan0 0EE#320320AA00000641
(1704734229.730114) vcan0 0EF#4E217D06F696172A
(1704734229.730366) vcan0 0F0#4E217D06D8200000
(1704734229.730601) vcan0 132#FE7F3664964D5000
(1704734229.730845) vcan0 133#007F187B00060000
(1704734229.731304) vcan0 36C#405549E900080583
(1704734229.731890) vcan0 0FD#DA80FFFE0099A0FF
(1704734229.732121) vcan0 0F5#7D0701FFD7F87130
(1704734229.732231) vcan0 144#BA
(1704734229.732399) vcan0 0FB#71C07D00
(1704734229.732638) vcan0 177#E580C8002D028000
(1704734229.736981) vcan0 0F6#FF640030000FFC00
(1704734229.737251) vcan0 0F8#FFFE714FC06DBFFF
(1704734229.737450) vcan0 10D#737007FC0000
(1704734229.738373) vcan0 148#6F0130000480
(1704734229.739549) vcan0 0EE#320320AA0000075C
(1704734229.739774) vcan0 0EF#4E217D076B96172A
(1704734229.740023) vcan0 0F0#4E217D0745200000
(1704734229.740260) vcan0 132#FE7F366497C25000
(1704734229.740503) vcan0 133#007F1CCE00060000
(1704734229.741624) vcan0 0FD#6390FFFE0099A0FF
(1704734229.741727) vcan0 144#BA
(1704734229.741964) vcan0 0F5#7D0875FFD7F87148
(1704734229.742196) vcan0 177#5C90C8002D028000
(1704734229.742362) vcan0 0FB#71C07D00
(1704734229.742607) vcan0 373#C180B25D0000FFCB
(1704734229.742839) vcan0 381#AAFFFFD7055C487D
(1704734229.743077) vcan0 383#4412FFCF00200000
(1704734229.746982) vcan0 0F6#FF640030000FFC00
(1704734229.747234) vcan0 0F8#FFFE714FC075BFFF
(1704734229.747440) vcan0 10D#DA8007FC0000
(1704734229.748366) vcan0 148#6F0130000480
(1704734229.749571) vcan0 0EE#320320AA000008E7
(1704734229.749785) vcan0 0EF#4E217D088496170A
(1704734229.750029) vcan0 0F0#4E217D082D200000
(1704734229.750261) vcan0 132#FE7F366498445000
(1704734229.750507) vcan0 133#007F202300060000
(1704734229.751564) vcan0 0FD#B5A0FFFE0099A0FF
(1704734229.751670) vcan0 144#BA
(1704734229.751913) vcan0 177#8AA0C8002D028000
(1704734229.752148) vcan0 0F5#7D09FEFFD7F87158
(1704734229.752308) vcan0 0FB#71C07D00
(1704734229.752547) vcan0 382#622C7F1663140063
(1704734229.754523) vcan0 375#022900BFF264FFFF
(1704734229.754754) vcan0 376#12DB9903F93F4254
(1704734229.755001) vcan0 440#003141401FFEFF95
(1704734229.755242) vcan0 4CE#5FFFFFFFDFFFE4C8
(1704734229.756977) vcan0 0F6#FF640030000FFC00
(1704734229.757246) vcan0 0F8#FFFE714FC071BFFF
(1704734229.757435) vcan0 10D#639007FC0000
(1704734229.757888) vcan0 4FB#860004000045
(1704734229.758364) vcan0 148#6F0130000480
(1704734229.759462) vcan0 0EE#320320AA000009FA
(1704734229.759685) vcan0 0EF#4E217D099E96172A
(1704734229.759934) vcan0 0F0#4E217D09B0200000
(1704734229.760172) vcan0 132#FE7F366499CB5000
(1704734229.760411) vcan0 133#007F249600060000
(1704734229.761515) vcan0 0FD#0CB0FFFE0099A0FF
(1704734229.761617) vcan0 144#BA
(1704734229.761867) vcan0 177#33B0C8002D028000
(1704734229.762093) vcan0 0F5#7D0A11FFD7F87140
(1704734229.762309) vcan0 3EF#A250DC15B00F60
(1704734229.762475) vcan0 0FB#72107D00
(1704734229.762615) vcan0 4DB#AE1ACE
(1704734229.766983) vcan0 0F6#FF640030000FFC00
(1704734229.767241) vcan0 0F8#FFFE7117C075BFFF
(1704734229.767444) vcan0 10D#B5A007FC0000
(1704734229.767676) vcan0 466#1419A48CA2230B72
(1704734229.768363) vcan0 148#6F0130000480
(1704734229.769755) vcan0 0EE#320320AA00000ADD
(1704734229.769975) vcan0 0EF#4E217D0A2496172A
(1704734229.770222) vcan0 0F0#4E217D0A0A200000
(1704734229.770455) vcan0 132#FE7F36649A475000
(1704734229.770698) vcan0 133#007F285400060000
(1704734229.771803) vcan0 0FD#04C0FFFE0099A0FF
(1704734229.772030) vcan0 0F5#7D0BD0FFD7F87160
(1704734229.772196) vcan0 0FB#72107D00
(1704734229.772306) vcan0 144#BA
(1704734229.772550) vcan0 177#3BC0C8002D028000
(1704734229.776980) vcan0 0F6#FF640030000FFC00
(1704734229.777248) vcan0 0F8#FFFE7117C065BFFF
(1704734229.777452) vcan0 10D#0CB007FC0000
(1704734229.778356) vcan0 148#6F0130000480
(1704734229.779598) vcan0 0EE#320320AA00000BC0
(1704734229.779824) vcan0 0EF#4E217D0BB996172A
(1704734229.780072) vcan0 0F0#4E217D0B97200000
(1704734229.780303) vcan0 132#FE7F36649BC85000
(1704734229.780543) vcan0 133#007F2CE100060000
(1704734229.781671) vcan0 0FD#BDD0FFFE0099A0FF
(1704734229.781773) vcan0 144#BA
(1704734229.782014) vcan0 0F5#7D0C70FFD7F87148
(1704734229.782245) vcan0 177#82D0C8002D028000
(1704734229.782410) vcan0 0FB#72107D00
(1704734229.786982) vcan0 0F6#FF640030000FFC00
(1704734229.787257) vcan0 0F8#FFFE7137C075BFFF
(1704734229.787459) vcan0 10D#04C007FC0000
(1704734229.788352) vcan0 148#6F0130000480
(1704734229.789569) vcan0 0EE#320320AA00000C93
(1704734229.789793) vcan0 0EF#4E217D0C4D96172A
(1704734229.790031) vcan0 0F0#4E217D0C63200000
(1704734229.790266) vcan0 132#FE7F36649C425000
(1704734229.790510) vcan0 133#007F30CD00060000
(1704734229.791579) vcan0 0FD#6BE0FFFE0099A0FF
(1704734229.791684) vcan0 144#BA
(1704734229.791930) vcan0 177#54E0C8002D028000
(1704734229.792159) vcan0 0F5#7D0DDEFFD7F87140
(1704734229.792332) vcan0 0FB#72107D00
(1704734229.796981) vcan0 0F6#FF640030000FFC00
(1704734229.797254) vcan0 0F8#FFFE7137C06DBFFF
(1704734229.797458) vcan0 10D#BDD007FC0000
(1704734229.798351) vcan0 148#6F0130000480
(1704734229.799481) vcan0 0EE#320320AA00000D8E
(1704734229.799707) vcan0 0EF#4E217D0DD096172A
(1704734229.799949) vcan0 0F0#4E217D0DFE200000
(1704734229.800184) vcan0 132#FE7F36649DCD5000
(1704734229.800423) vcan0 133#007F347800060000
(1704734229.801521) vcan0 0FD#D2F0FFFE0099A0FF
(1704734229.801620) vcan0 144#BA
(1704734229.801869) vcan0 177#EDF0C8002D028000
(1704734229.802099) vcan0 0F5#7D0EFCFFD7F87148
(1704734229.802295) vcan0 0FB#72107D00
(1704734229.806983) vcan0 0F6#FF640030000FFC00
(1704734229.807223) vcan0 10D#6BE007FC0000
(1704734229.807466) vcan0 0F8#FFFE717FC075BFFF
(1704734229.808347) vcan0 148#6F0130000480
(1704734229.809715) vcan0 0EE#320320AA00000EA9
(1704734229.809941) vcan0 0EF#4E217D0E6A96172A
(1704734229.810191) vcan0 0F0#4E217D0E44200000
(1704734229.810423) vcan0 132#FE7F36649E415000
(1704734229.810669) vcan0 133#007F38BA00060000
(1704734229.811737) vcan0 0FD#7B00FFFE0099A0FF
(1704734229.811964) vcan0 0F5#7D0FE3FFD7F87138
(1704734229.812075) vcan0 144#BA
(1704734229.812246) vcan0 0FB#72107D00
(1704734229.812485) vcan0 177#4400C8002D028000
(1704734229.816977) vcan0 0F6#FF640030000FFC00
(1704734229.817220) vcan0 10D#D2F007FC0000
(1704734229.817467) vcan0 0F8#FFFE717FC06DBFFF
(1704734229.818342) vcan0 148#6F0130000480
(1704734229.819597) vcan0 0EE#320320AA00000FB4
(1704734229.819817) vcan0 0EF#4E217D0FF796172A
(1704734229.820066) vcan0 0F0#4E217D0FD9200000
(1704734229.820301) vcan0 132#FE7F36649FCE5000
(1704734229.820545) vcan0 133#007F3C0F00060000
(1704734229.821695) vcan0 0FD#C210FFFE0099A0FF
(1704734229.821798) vcan0 144#BA
(1704734229.822041) vcan0 0F5#7D0026FFD7F87138
(1704734229.822205) vcan0 0FB#72107D00
(1704734229.822446) vcan0 177#FD10C8002D028000
(1704734229.826979) vcan0 0F6#FF640030000FFC00
(1704734229.827257) vcan0 37E#415300C003CF80FF
(1704734229.827499) vcan0 0F8#FFFE7197C071BFFF
(1704734229.827700) vcan0 10D#7B0007FC0000
(1704734229.828375) vcan0 38E#2192FFC010200000
(1704734229.828621) vcan0 029#C54A84C100F3
(1704734229.828830) vcan0 148#6F0130000480
(1704734229.829846) vcan0 0EE#320320AA0000000F
(1704734229.830068) vcan0 0EF#4E217D009F96172A
(1704734229.830315) vcan0 0F0#4E217D00B1200000
(1704734229.830555) vcan0 132#FE7F366490485000
(1704734229.830805) vcan0 133#007F00E200060000
(1704734229.831281) vcan0 36C#405549E9000806A4
(1704734229.831956) vcan0 0FD#1420FFFE0099A0FF
(1704734229.832183) vcan0 0F5#7D01D1FFD7F87140
(1704734229.832294) vcan0 144#BA
(1704734229.832466) vcan0 0FB#72107D00
(1704734229.832706) vcan0 177#2B20C8002D028000
(1704734229.836978) vcan0 0F6#FF640030000FFC00
(1704734229.837221) vcan0 10D#C21007FC0000
(1704734229.837468) vcan0 0F8#FFFE716FC071BFFF
(1704734229.838332) vcan0 148#6F0130000480
(1704734229.839472) vcan0 0EE#320320AA00000112
(1704734229.839703) vcan0 0EF#4E217D010296172A
(1704734229.839949) vcan0 0F0#4E217D012C200000
(1704734229.840191) vcan0 132#FE7F366491C75000
(1704734229.840436) vcan0 133#007F045700060000
(1704734229.841494) vcan0 0FD#AD30FFFE0099A0FF
(1704734229.841600) vcan0 144#BA
(1704734229.841844) vcan0 177#9230C8002D028000
(1704734229.842070) vcan0 0F5#7D0242FFD7F87130
(1704734229.842313) vcan0 373#C180B25D0000FFCB
(1704734229.842477) vcan0 0FB#72107D00
(1704734229.842716) vcan0 381#AAFFFFD7055C487D
(1704734229.842957) vcan0 383#4412FFCF00200000
(1704734229.846979) vcan0 0F6#FF640030000FFC00
(1704734229.847223) vcan0 10D#142007FC0000
(1704734229.847465) vcan0 0F8#FFFE716FC071BFFF
(1704734229.848327) vcan0 148#6F0130000480
(1704734229.849713) vcan0 0EE#320320AA00000235
(1704734229.849937) vcan0 0EF#4E217D023F96170A
(1704734229.850186) vcan0 0F0#4E217D0296200000
(1704734229.850418) vcan0 132#FE7F3664924B5000
(1704734229.850656) vcan0 133#007F089500060000
(1704734229.851668) vcan0 0FD#A540FFFE0099A0FF
(1704734229.851774) vcan0 144#BA
(1704734229.852010) vcan0 0F5#7D035DFFD7F87140
(1704734229.852251) vcan0 177#9A40C8002D028000
(1704734229.852417) vcan0 0FB#72107D00
(1704734229.852646) vcan0 382#622C7F1663140063
(1704734229.854517) vcan0 375#022900BFF264FFFF
(1704734229.854744) vcan0 376#12DB9903F93F4254
(1704734229.854990) vcan0 440#003188501FFEFF96
(1704734229.855237) vcan0 4CE#5FFFFFFFDFFFE5D5
(1704734229.856975) vcan0 0F6#FF640030000FFC00
(1704734229.857216) vcan0 10D#AD3007FC0000
(1704734229.857461) vcan0 0F8#FFFE716FC075BFFF
(1704734229.858125) vcan0 4FB#870004000018
(1704734229.858321) vcan0 148#6EC131000480
(1704734229.859515) vcan0 0EE#320320AA00000328
(1704734229.859743) vcan0 0EF#4E217D032596172A
(1704734229.859993) vcan0 0F0#4E217D030B200000
(1704734229.860228) vcan0 132#FE7F366493C45000
(1704734229.860475) vcan0 133#007F0C2000060000
(1704734229.861447) vcan0 0FD#1C50FFFE0099A0FF
(1704734229.861547) vcan0 144#BA
(1704734229.861792) vcan0 177#2350C8002D028000
(1704734229.862027) vcan0 0F5#7D0492FFD7F87140
(1704734229.862195) vcan0 0FB#71C07D00
(1704734229.862415) vcan0 3EF#7460DC15B00F60
(1704734229.862602) vcan0 4DB#AE1ACD
(1704734229.866986) vcan0 0F6#FF640030000FFC00
(1704734229.867220) vcan0 10D#A54007FC0000
(1704734229.867462) vcan0 0F8#FFFE7127C079BFFF
(1704734229.867694) vcan0 466#14586E460E30EE0A
(1704734229.868321) vcan0 148#6EC131000480
(1704734229.869578) vcan0 0EE#320320AA0000047B
(1704734229.869800) vcan0 0EF#4E217D04D196172A
(1704734229.870056) vcan0 0F0#4E217D04FF200000
(1704734229.870287) vcan0 132#FE7F3664944E5000
(1704734229.870534) vcan0 133#007F100C00060000
(1704734229.871528) vcan0 0FD#CA60FFFE0099A0FF
(1704734229.871626) vcan0 144#BA
(1704734229.871871) vcan0 177#F560C8002D028000
(1704734229.872103) vcan0 0F5#7D05D4FFD7F87140
(1704734229.872291) vcan0 0FB#71C07D00
(1704734229.872934) vcan0 5F8#1644908F
(1704734229.873080) vcan0 6BF#000000
(1704734229.876980) vcan0 0F6#FF640030000FFC00
(1704734229.877216) vcan0 10D#1C5007FC0000
(1704734229.877463) vcan0 0F8#FFFE7127C071BFFF
(1704734229.878316) vcan0 148#6EC131000480
(1704734229.879418) vcan0 0EE#320320AA00000566
(1704734229.879647) vcan0 0EF#4E217D054C96172A
(1704734229.879891) vcan0 0F0#4E217D0562200000
(1704734229.880132) vcan0 132#FE7F366495C15000
(1704734229.880376) vcan0 133#007F14B900060000
(1704734229.881385) vcan0 0FD#7370FFFE0099A0FF
(1704734229.881485) vcan0 144#BA
(1704734229.881723) vcan0 177#4C70C8002D028000
(1704734229.881962) vcan0 0F5#7D06F6FFD7F87148
(1704734229.882184) vcan0 0FB#71C07D00
(1704734229.886983) vcan0 0F6#FF640030000FFC00
(1704734229.887223) vcan0 10D#CA6007FC0000
(1704734229.887474) vcan0 0F8#FFFE712FC071BFFF
(1704734229.888232) vcan0 148#6EC131000480
(1704734229.889628) vcan0 0EE#320320AA00000641
(1704734229.889855) vcan0 0EF#4E217D06F696172A
(1704734229.890099) vcan0 0F0#4E217D06D8200000
(1704734229.890332) vcan0 132#FE7F3664964D5000
(1704734229.890577) vcan0 133#007F187B00060000
(1704734229.891537) vcan0 0FD#DA80FFFE0099A0FF
(1704734229.891639) vcan0 144#BA
(1704734229.891881) vcan0 177#E580C8002D028000
(1704734229.892116) vcan0 0F5#7D07E9FFD7F87138
(1704734229.892291) vcan0 0FB#71C07D00
(1704734229.896978) vcan0 0F6#FF640030000FFC00
(1704734229.897216) vcan0 10D#737007FC0000
(1704734229.897461) vcan0 0F8#FFFE712FC06DBFFF
(1704734229.898229) vcan0 148#6EC131000480
(1704734229.899538) vcan0 0EE#320320AA0000075C
(1704734229.899764) vcan0 0EF#4E217D076B96172A
(1704734229.900013) vcan0 0F0#4E217D0745200000
(1704734229.900252) vcan0 132#FE7F366497C25000
(1704734229.900494) vcan0 133#007F1CCE00060000
(1704734229.901456) vcan0 0FD#6390FFFE0099A0FF
(1704734229.901555) vcan0 144#BA
(1704734229.901792) vcan0 177#5C90C8002D028000
(1704734229.902028) vcan0 0F5#7D08ABFFD7F87118
(1704734229.902194) vcan0 0FB#71C07D00
(1704734229.906983) vcan0 0F6#FF640030000FFC00
(1704734229.907221) vcan0 10D#DA8007FC0000
(1704734229.907467) vcan0 0F8#FFFE7167C075BFFF
(1704734229.908220) vcan0 148#6EC131000480
(1704734229.909505) vcan0 0EE#320320AA000008E7
(1704734229.909730) vcan0 0EF#4E217D080396172A
(1704734229.909974) vcan0 0F0#4E217D082D200000
(1704734229.910205) vcan0 132#FE7F366498445000
(1704734229.910450) vcan0 133#007F202300060000
(1704734229.911424) vcan0 0FD#B5A0FFFE0099A0FF
(1704734229.911524) vcan0 144#BA
(1704734229.911772) vcan0 177#8AA0C8002D028000
(1704734229.911999) vcan0 0F5#7D09DBFFD7F87140
(1704734229.912187) vcan0 0FB#71C07D00
(1704734229.916978) vcan0 0F6#FF640030000FFC00
(1704734229.917215) vcan0 10D#639007FC0000
(1704734229.917462) vcan0 0F8#FFFE7167C075BFFF
(1704734229.918219) vcan0 148#6EC131000480
(1704734229.919417) vcan0 0EE#320320AA000009FA
(1704734229.919637) vcan0 0EF#4E217D099E96172A
(1704734229.919880) vcan0 0F0#4E217D09B0200000
(1704734229.920118) vcan0 132#FE7F366499CB5000
(1704734229.920360) vcan0 133#007F249600060000
(1704734229.921396) vcan0 0FD#0CB0FFFE0099A0FF
(1704734229.921493) vcan0 144#BA
(1704734229.921737) vcan0 177#33B0C8002D028000
(1704734229.921972) vcan0 0F5#7D0A11FFD7F87140
(1704734229.922185) vcan0 0FB#71C07D00
(1704734229.926980) vcan0 0F6#FF640030000FFC00
(1704734229.927260) vcan0 37E#415000C003CF80FF
(1704734229.927505) vcan0 0F8#FFFE717FC079BFFF
(1704734229.927708) vcan0 10D#B5A007FC0000
(1704734229.928249) vcan0 38E#2192FFC010200000
(1704734229.928477) vcan0 029#C54A85AB00F3
(1704734229.928609) vcan0 389#0780
(1704734229.928876) vcan0 148#6F0131000480
(1704734229.929913) vcan0 0EE#320320AA00000ADD
(1704734229.930132) vcan0 0EF#4E217D0A2496172A
(1704734229.930375) vcan0 0F0#4E217D0A0A200000
(1704734229.930613) vcan0 132#FE7F36649A475000
(1704734229.930859) vcan0 133#007F285400060000
(1704734229.931296) vcan0 36C#405549E9000807B9
(1704734229.931429) vcan0 387#00
(1704734229.931926) vcan0 0FD#04C0FFFE0099A0FF
(1704734229.932153) vcan0 0F5#7D0BE6FFD7F87138
(1704734229.932321) vcan0 0FB#71C07D00
(1704734229.932432) vcan0 144#BA
(1704734229.932674) vcan0 177#3BC0C8002D028000
(1704734229.936980) vcan0 0F6#FF640030000FFC00
(1704734229.937222) vcan0 10D#0CB007FC0000
(1704734229.937466) vcan0 0F8#FFFE716FC069BFFF
(1704734229.938202) vcan0 148#6F0131000480
(1704734229.939554) vcan0 0EE#320320AA00000BC0
(1704734229.939781) vcan0 0EF#4E217D0BB996172A
(1704734229.940024) vcan0 0F0#4E217D0B97200000
(1704734229.940255) vcan0 132#FE7F36649BC85000
(1704734229.940501) vcan0 133#007F2CE100060000
(1704734229.941543) vcan0 0FD#BDD0FFFE0099A0FF
(1704734229.941647) vcan0 144#BA
(1704734229.941886) vcan0 177#82D0C8002D028000
(1704734229.942119) vcan0 0F5#7D0C29FFD7F87138
(1704734229.942360) vcan0 373#C1805DB20000FFCB
(1704734229.942525) vcan0 0FB#71C07D00
(1704734229.942757) vcan0 381#AAFFFFD7055C487D
(1704734229.943002) vcan0 383#4412FFCF00200000
(1704734229.946978) vcan0 0F6#FF640030000FFC00
(1704734229.947217) vcan0 10D#04C007FC0000
(1704734229.947464) vcan0 0F8#FFFE716FC075BFFF
(1704734229.948199) vcan0 148#6F0130000480
(1704734229.949563) vcan0 0EE#320320AA00000C93
(1704734229.949781) vcan0 0EF#4E217D0CCA96170A
(1704734229.950024) vcan0 0F0#4E217D0C63200000
(1704734229.950257) vcan0 132#FE7F36649C425000
(1704734229.950498) vcan0 133#007F30CD00060000
(1704734229.951477) vcan0 0FD#6BE0FFFE0099A0FF
(1704734229.951579) vcan0 144#BA
(1704734229.951824) vcan0 177#54E0C8002D028000
(1704734229.952058) vcan0 0F5#7D0D87FFD7F87130
(1704734229.952223) vcan0 0FB#71C07D00
(1704734229.952460) vcan0 382#622C7F1663140063
(1704734229.952566) vcan0 384#00
(1704734229.954449) vcan0 375#022900BFF264FFFF
(1704734229.954675) vcan0 376#12DB9903F93F4254
(1704734229.954914) vcan0 440#0031A7601FFEFF96
(1704734229.955155) vcan0 4CE#5FFFFFFFDFFFE6F2
(1704734229.956981) vcan0 0F6#FF640030000FFC00
(1704734229.957217) vcan0 10D#BDD007FC0000
(1704734229.957464) vcan0 0F8#FFFE716FC075BFFF
(1704734229.957783) vcan0 372#00000000061B90
(1704734229.957982) vcan0 4FB#880004000044
(1704734229.958211) vcan0 388#1FFC03FFFFFF01
(1704734229.958411) vcan0 148#6F0131000480
(1704734229.959440) vcan0 0EE#320320AA00000D8E
(1704734229.959666) vcan0 0EF#4E217D0DD096172A
(1704734229.959899) vcan0 0F0#4E217D0DFE200000
(1704734229.960134) vcan0 132#FE7F36649DCD5000
(1704734229.960380) vcan0 133#007F347800060000
(1704734229.961384) vcan0 0FD#D2F0FFFE0099A0FF
(1704734229.961480) vcan0 144#BA
(1704734229.961730) vcan0 177#EDF0C8002D028000
(1704734229.961965) vcan0 0F5#7D0E14FFD7F87140
(1704734229.962185) vcan0 0FB#71C07D00
(1704734229.962403) vcan0 3EF#CD70DC15B00F60
(1704734229.962694) vcan0 6BE#5F010101FFFFFE00
(1704734229.962892) vcan0 4DB#AE2ACF
(1704734229.963092) vcan0 612#3B31311F
(1704734229.966982) vcan0 0F6#FF640030000FFC00
(1704734229.967219) vcan0 10D#6BE007FC0000
(1704734229.967470) vcan0 0F8#FFFE7137C079BFFF
(1704734229.967698) vcan0 466#14973800793DD2A1
(1704734229.968184) vcan0 148#6F0131000480
(1704734229.969711) vcan0 0EE#320320AA00000EA9
(1704734229.969936) vcan0 0EF#4E217D0E6A96172A
(1704734229.970178) vcan0 0F0#4E217D0E44200000
(1704734229.970415) vcan0 132#FE7F36649E415000
(1704734229.970658) vcan0 133#007F38BA00060000
(1704734229.971641) vcan0 0FD#7B00FFFE0099A0FF
(1704734229.971740) vcan0 144#BA
(1704734229.971979) vcan0 0F5#7D0FBAFFD7F87148
(1704734229.972220) vcan0 177#4400C8002D028000
(1704734229.972388) vcan0 0FB#71C07D00
(1704734229.976974) vcan0 0F6#FF640030000FFC00
(1704734229.977217) vcan0 10D#D2F007FC0000
(1704734229.977462) vcan0 0F8#FFFE7137C069BFFF
(1704734229.978185) vcan0 148#6F0131000480
(1704734229.979558) vcan0 0EE#320320AA00000FB4
(1704734229.979779) vcan0 0EF#4E217D0FF796172A
(1704734229.980027) vcan0 0F0#4E217D0FD9200000
(1704734229.980265) vcan0 132#FE7F36649FCE5000
(1704734229.980509) vcan0 133#007F3C0F00060000
(1704734229.981516) vcan0 0FD#C210FFFE0099A0FF
(1704734229.981616) vcan0 144#BA
(1704734229.981861) vcan0 177#FD10C8002D028000
(1704734229.982092) vcan0 0F5#7D0026FFD7F87138
(1704734229.982290) vcan0 0FB#71C07D00
(1704734229.986981) vcan0 0F6#FF640030000FFC00
(1704734229.987216) vcan0 10D#7B0007FC0000
(1704734229.987469) vcan0 0F8#FFFE7137C075BFFF
(1704734229.988179) vcan0 148#6F0131000480
(1704734229.989552) vcan0 0EE#320320AA0000000F
(1704734229.989778) vcan0 0EF#4E217D009F96172A
(1704734229.990028) vcan0 0F0#4E217D00B1200000
(1704734229.990266) vcan0 132#FE7F366490485000
(1704734229.990509) vcan0 133#007F00E200060000
(1704734229.991450) vcan0 0FD#1420FFFE0099A0FF
(1704734229.991556) vcan0 144#BA
(1704734229.991795) vcan0 177#2B20C8002D028000
(1704734229.992030) vcan0 0F5#7D0160FFD7F87138
(1704734229.992200) vcan0 0FB#71C07D00
(1704734229.996978) vcan0 0F6#FF640030000FFC00
(1704734229.997223) vcan0 10D#C21007FC0000
(1704734229.997471) vcan0 0F8#FFFE7137C075BFFF
(1704734229.998172) vcan0 148#6F0131000480
(1704734229.999411) vcan0 0EE#320320AA00000112
(1704734229.999637) vcan0 0EF#4E217D010296172A
(1704734229.999892) vcan0 0F0#4E217D012C200000
(1704734230.000126) vcan0 132#FE7F366491C75000
(1704734230.000371) vcan0 133#007F045700060000
(1704734230.001354) vcan0 0FD#AD30FFFE0099A0FF
(1704734230.001453) vcan0 144#BA
(1704734230.001694) vcan0 177#9230C8002D028000
(1704734230.001963) vcan0 0F5#7D02AAFFD7F87138
(1704734230.002182) vcan0 0FB#71C07D00
(1704734230.006983) vcan0 0F6#FF640030000FFC00
(1704734230.007216) vcan0 10D#142007FC0000
(1704734230.007465) vcan0 0F8#FFFE716FC071BFFF
(1704734230.008168) vcan0 148#6F0131000480
(1704734230.009649) vcan0 0EE#320320AA00000235
(1704734230.009869) vcan0 0EF#4E217D02B896172A
(1704734230.010121) vcan0 0F0#4E217D0296200000
(1704734230.010356) vcan0 132#FE7F3664924B5000
(1704734230.010595) vcan0 133#007F089500060000
(1704734230.011557) vcan0 0FD#A540FFFE0099A0FF
(1704734230.011660) vcan0 144#BA
(1704734230.011903) vcan0 177#9A40C8002D028000
(1704734230.012138) vcan0 0F5#7D03ECFFD7F87138
(1704734230.012305) vcan0 0FB#71C07D00
(1704734230.016979) vcan0 0F6#FF640030000FFC00
(1704734230.017218) vcan0 10D#AD3007FC0000
(1704734230.017459) vcan0 0F8#FFFE716FC071BFFF
(1704734230.018164) vcan0 148#6F0131000480
(1704734230.019514) vcan0 0EE#320320AA00000328
(1704734230.019741) vcan0 0EF#4E217D032596172A
(1704734230.019986) vcan0 0F0#4E217D030B200000
(1704734230.020221) vcan0 132#FE7F366493C45000
(1704734230.020468) vcan0 133#007F0C2000060000
(1704734230.021486) vcan0 0FD#1C50FFFE0099A0FF
(1704734230.021588) vcan0 144#BA
(1704734230.021832) vcan0 177#2350C8002D028000
(1704734230.022068) vcan0 0F5#7D0492FFD7F87140
(1704734230.022292) vcan0 0FB#71C07D00
(1704734230.026982) vcan0 0F6#FF640030000FFC00
(1704734230.027258) vcan0 37E#415100C003CF80FF
(1704734230.027500) vcan0 0F8#FFFE718FC075BFFF
(1704734230.027707) vcan0 10D#A54007FC0000
(1704734230.028198) vcan0 38E#2192FFC010200000
(1704734230.028434) vcan0 029#C54A861500F3
(1704734230.028646) vcan0 148#6F0131000480
(1704734230.029772) vcan0 0EE#320320AA0000047B
(1704734230.029995) vcan0 0EF#4E217D04D196172A
(1704734230.030246) vcan0 0F0#4E217D04FF200000
(1704734230.030479) vcan0 132#FE7F3664944E5000
(1704734230.030727) vcan0 133#007F100C00060000
(1704734230.031305) vcan0 36C#40AA49E90008080B
(1704734230.031781) vcan0 0FD#CA60FFFE0099A0FF
(1704734230.032014) vcan0 0F5#7D05D4FFD7F87140
(1704734230.032128) vcan0 144#BA
(1704734230.032297) vcan0 0FB#71C07D00
(1704734230.032529) vcan0 177#F560C8002D028000
(1704734230.036980) vcan0 0F6#FF640030000FFC00
(1704734230.037215) vcan0 10D#1C5007FC0000
(1704734230.037457) vcan0 0F8#FFFE716FC079BFFF
(1704734230.038150) vcan0 148#6F0131000480
(1704734230.039429) vcan0 0EE#320320AA00000566
(1704734230.039656) vcan0 0EF#4E217D054C96172A
(1704734230.039904) vcan0 0F0#4E217D0562200000
(1704734230.040143) vcan0 132#FE7F366495C15000
(1704734230.040386) vcan0 133#007F14B900060000
(1704734230.041501) vcan0 0FD#7370FFFE0099A0FF
(1704734230.041599) vcan0 144#BA
(1704734230.041840) vcan0 177#4C70C8002D028000
(1704734230.042075) vcan0 0F5#7D0628FFD7F87118
(1704734230.042316) vcan0 373#C1805DB20000FFCB
(1704734230.042478) vcan0 0FB#71C07D00
(1704734230.042719) vcan0 381#AAFFFFD7055C487D
(1704734230.042959) vcan0 383#4412FFCF00200000
(1704734230.046976) vcan0 0F6#FF640030000FFC00
(1704734230.047222) vcan0 10D#CA6007FC0000
(1704734230.047466) vcan0 0F8#FFFE716FC071BFFF
(1704734230.048147) vcan0 148#6F0131000480
(1704734230.049687) vcan0 0EE#320320AA00000641
(1704734230.049910) vcan0 0EF#4E217D067196170A
(1704734230.050152) vcan0 0F0#4E217D06D8200000
(1704734230.050388) vcan0 132#FE7F3664964D5000
(1704734230.050632) vcan0 133#007F187B00060000
(1704734230.051679) vcan0 0FD#DA80FFFE0099A0FF
(1704734230.051781) vcan0 144#BA
(1704734230.052024) vcan0 0F5#7D0701FFD7F87130
(1704734230.052187) vcan0 0FB#71C07D00
(1704734230.052426) vcan0 177#E580C8002D028000
(1704734230.052661) vcan0 382#622C7F1663140063
(1704734230.054530) vcan0 375#022900BFF264FFFF
(1704734230.054756) vcan0 376#12DB9903F93F4254
(1704734230.055004) vcan0 440#003149701FFEFF96
(1704734230.055257) vcan0 4CE#5FFFFFFFDFFFE7EF
(1704734230.056977) vcan0 0F6#FF640030000FFC00
(1704734230.057217) vcan0 10D#737007FC0000
(1704734230.057466) vcan0 0F8#FFFE716FC069BFFF
(1704734230.057971) vcan0 4FB#890004000019
(1704734230.058156) vcan0 148#6F0131000480
(1704734230.059576) vcan0 0EE#320320AA0000075C
(1704734230.059802) vcan0 0EF#4E217D076B96172A
(1704734230.060047) vcan0 0F0#4E217D0745200000
(1704734230.060288) vcan0 132#FE7F366497C25000
(1704734230.060537) vcan0 133#007F1CCE00060000
(1704734230.061615) vcan0 0FD#6390FFFE0099A0FF
(1704734230.061719) vcan0 144#BA
(1704734230.061960) vcan0 177#5C90C8002D028000
(1704734230.062192) vcan0 0F5#7D082CFFD7F87138
(1704734230.062412) vcan0 3EF#6480DC15B00F60
(1704734230.062579) vcan0 0FB#71E87D00
(1704734230.062720) vcan0 4DB#AE1ACD
(1704734230.066983) vcan0 0F6#FF640030000FFC00
(1704734230.067222) vcan0 10D#DA8007FC0000
(1704734230.067470) vcan0 0F8#FFFE7127C071BFFF
(1704734230.067693) vcan0 466#14D602B9E44AB639
(1704734230.068136) vcan0 148#6F0131000480
(1704734230.069585) vcan0 0EE#320320AA000008E7
(1704734230.069805) vcan0 0EF#4E217D080396172A
(1704734230.070052) vcan0 0F0#4E217D082D200000
(1704734230.070285) vcan0 132#FE7F366498445000
(1704734230.070530) vcan0 133#007F202300060000
(1704734230.071629) vcan0 0FD#B5A0FFFE0099A0FF
(1704734230.071733) vcan0 144#BA
(1704734230.071973) vcan0 0F5#7D096AFFD7F87138
(1704734230.072209) vcan0 177#8AA0C8002D028000
(1704734230.072377) vcan0 0FB#71E87D00
(1704734230.076977) vcan0 0F6#FF640030000FFC00
(1704734230.077216) vcan0 10D#639007FC0000
(1704734230.077460) vcan0 0F8#FFFE7127C075BFFF
(1704734230.078133) vcan0 148#6F0131000480
(1704734230.079455) vcan0 0EE#320320AA000009FA
(1704734230.079672) vcan0 0EF#4E217D099E96172A
(1704734230.079920) vcan0 0F0#4E217D09B0200000
(1704734230.080155) vcan0 132#FE7F366499CB5000
(1704734230.080399) vcan0 133#007F249600060000
(1704734230.081543) vcan0 0FD#0CB0FFFE0099A0FF
(1704734230.081642) vcan0 144#BA
(1704734230.081880) vcan0 177#33B0C8002D028000
(1704734230.082123) vcan0 0F5#7D0AF9FFD7F87148
(1704734230.082292) vcan0 0FB#71E87D00
(1704734230.086976) vcan0 0F6#FF640030000FFC00
(1704734230.087223) vcan0 10D#B5A007FC0000
(1704734230.087470) vcan0 0F8#FFFE7137C075BFFF
(1704734230.088134) vcan0 148#6F0131000480
(1704734230.089700) vcan0 0EE#320320AA00000ADD
(1704734230.089925) vcan0 0EF#4E217D0A2496172A
(1704734230.090171) vcan0 0F0#4E217D0A0A200000
(1704734230.090404) vcan0 132#FE7F36649A475000
(1704734230.090652) vcan0 133#007F285400060000
(1704734230.091737) vcan0 0FD#04C0FFFE0099A0FF
(1704734230.091967) vcan0 0F5#7D0BE6FFD7F87138
(1704734230.092076) vcan0 144#BA
(1704734230.092246) vcan0 0FB#71E87D00
(1704734230.092488) vcan0 177#3BC0C8002D028000
(1704734230.096977) vcan0 0F6#FF640030000FFC00
(1704734230.097219) vcan0 10D#0CB007FC0000
(1704734230.097463) vcan0 0F8#FFFE7137C069BFFF
(1704734230.098125) vcan0 148#6F0131000480
(1704734230.099577) vcan0 0EE#320320AA00000BC0
(1704734230.099794) vcan0 0EF#4E217D0BB996172A
(1704734230.100040) vcan0 0F0#4E217D0B97200000
(1704734230.100276) vcan0 132#FE7F36649BC85000
(1704734230.100512) vcan0 133#007F2CE100060000
(1704734230.101605) vcan0 0FD#BDD0FFFE0099A0FF
(1704734230.101705) vcan0 144#BA
(1704734230.101962) vcan0 177#82D0C8002D028000
(1704734230.102182) vcan0 0F5#7D0CC1FFD7F87130
(1704734230.102387) vcan0 0FB#71E87D00
(1704734230.106979) vcan0 0F6#FF640030000FFC00
(1704734230.107218) vcan0 10D#04C007FC0000
(1704734230.107459) vcan0 0F8#FFFE715FC075BFFF
(1704734230.108123) vcan0 148#6F0131000480
(1704734230.109550) vcan0 0EE#320320AA00000C93
(1704734230.109778) vcan0 0EF#4E217D0C4D96172A
(1704734230.110018) vcan0 0F0#4E217D0C63200000
(1704734230.110251) vcan0 132#FE7F36649C425000
(1704734230.110495) vcan0 133#007F30CD00060000
(1704734230.111578) vcan0 0FD#6BE0FFFE0099A0FF
(1704734230.111678) vcan0 144#BA
(1704734230.111916) vcan0 177#54E0C8002D028000
(1704734230.112150) vcan0 0F5#7D0D6FFFD7F87138
(1704734230.112318) vcan0 0FB#71E87D00
(1704734230.116974) vcan0 0F6#FF640030000FFC00
(1704734230.117212) vcan0 10D#BDD007FC0000
(1704734230.117456) vcan0 0F8#FFFE715FC071BFFF
(1704734230.118119) vcan0 148#6F0131000480
(1704734230.119455) vcan0 0EE#320320AA00000D8E
(1704734230.119676) vcan0 0EF#4E217D0DD096172A
(1704734230.119922) vcan0 0F0#4E217D0DFE200000
(1704734230.120159) vcan0 132#FE7F36649DCD5000
(1704734230.120400) vcan0 133#007F347800060000
(1704734230.121529) vcan0 0FD#D2F0FFFE0099A0FF
(1704734230.121635) vcan0 144#BA
(1704734230.121876) vcan0 177#EDF0C8002D028000
(1704734230.122104) vcan0 0F5#7D0ECAFFD7F87110
(1704734230.122291) vcan0 0FB#71E87D00
(1704734230.126978) vcan0 0F6#FF640030000FFC00
(1704734230.127252) vcan0 37E#414B00C003CF80FF
(1704734230.127500) vcan0 0F8#FFFE718FC075BFFF
(1704734230.127700) vcan0 10D#6BE007FC0000
(1704734230.128153) vcan0 38E#2192FFC010200000
(1704734230.128400) vcan0 029#C54A877F00F3
(1704734230.128602) vcan0 148#6F0131000480
(1704734230.129945) vcan0 0EE#320320AA00000EA9
(1704734230.130179) vcan0 0EF#4E217D0E6A96172A
(1704734230.130408) vcan0 0F0#4E217D0E44200000
(1704734230.130647) vcan0 132#FE7F36649E415000
(1704734230.130888) vcan0 133#007F38BA00060000
(1704734230.131303) vcan0 36C#40AA49E900080916
(1704734230.131969) vcan0 0F5#7D0FE3FFD7F87138
(1704734230.132199) vcan0 0FD#7B00FFFE0099A0FF
(1704734230.132366) vcan0 0FB#71E87D00
(1704734230.132480) vcan0 144#BA
(1704734230.132725) vcan0 177#4400C8002D028000
(1704734230.136976) vcan0 0F6#FF640030000FFC00
(1704734230.137217) vcan0 10D#D2F007FC0000
(1704734230.137464) vcan0 0F8#FFFE716FC06DBFFF
(1704734230.138110) vcan0 148#6F0131000480
(1704734230.139591) vcan0 0EE#320320AA00000FB4
(1704734230.139820) vcan0 0EF#4E217D0FF796172A
(1704734230.140061) vcan0 0F0#4E217D0FD9200000
(1704734230.140296) vcan0 132#FE7F36649FCE5000
(1704734230.140548) vcan0 133#007F3C0F00060000
(1704734230.141603) vcan0 0FD#C210FFFE0099A0FF
(1704734230.141703) vcan0 144#BA
(1704734230.141941) vcan0 177#FD10C8002D028000
(1704734230.142172) vcan0 0F5#7D0097FFD7F87140
(1704734230.142410) vcan0 373#C1805DB20000FFCB
(1704734230.142578) vcan0 0FB#71E87D00
(1704734230.142820) vcan0 381#55FFFFD7055C487D
(1704734230.143062) vcan0 383#4412FFCF00200000
(1704734230.146978) vcan0 0F6#FF640030000FFC00
(1704734230.147213) vcan0 10D#7B0007FC0000
(1704734230.147459) vcan0 0F8#FFFE716FC075BFFF
(1704734230.148107) vcan0 148#6F0131000480
(1704734230.149629) vcan0 0EE#320320AA0000000F
(1704734230.149854) vcan0 0EF#4E217D001896170A
(1704734230.150095) vcan0 0F0#4E217D00B1200000
(1704734230.150335) vcan0 132#FE7F366490485000
(1704734230.150580) vcan0 133#007F00E200060000
(1704734230.151575) vcan0 0FD#1420FFFE0099A0FF
(1704734230.151681) vcan0 144#BA
(1704734230.151920) vcan0 177#2B20C8002D028000
(1704734230.152156) vcan0 0F5#7D01D1FFD7F87140
(1704734230.152320) vcan0 0FB#71E87D00
(1704734230.152553) vcan0 382#622C7F1663140063
(1704734230.154470) vcan0 375#022900BFF264FFFF
(1704734230.154706) vcan0 376#12DB9903F93F4254
(1704734230.154938) vcan0 440#0031DA801FFEFF96
(1704734230.155179) vcan0 4CE#5FFFFFFFDFFFE854
(1704734230.156975) vcan0 0F6#FF640030000FFC00
(1704734230.157218) vcan0 10D#C21007FC0000
(1704734230.157464) vcan0 0F8#FFFE716FC069BFFF
(1704734230.157828) vcan0 4FB#8A00040000FE
(1704734230.158097) vcan0 148#6F0131000480
(1704734230.159414) vcan0 0EE#320320AA00000112
(1704734230.159633) vcan0 0EF#4E217D010296172A
(1704734230.159883) vcan0 0F0#4E217D012C200000
(1704734230.160128) vcan0 132#FE7F366491C75000
(1704734230.160375) vcan0 133#007F045700060000
(1704734230.161350) vcan0 0FD#AD30FFFE0099A0FF
(1704734230.161451) vcan0 144#BA
(1704734230.161687) vcan0 177#9230C8002D028000
(1704734230.161964) vcan0 0F5#7D021BFFD7F87140
(1704734230.162182) vcan0 0FB#71C07D00
(1704734230.162427) vcan0 3EF#DD90DC15B00F60
(1704734230.162603) vcan0 4DB#AE2ACF
(1704734230.166979) vcan0 0F6#FF640030000FFC00
(1704734230.167214) vcan0 10D#142007FC0000
(1704734230.167463) vcan0 0F8#FFFE711FC07DBFFF
(1704734230.167699) vcan0 466#1416CB7350579AD0
(1704734230.168097) vcan0 148#6F0131000480
(1704734230.169696) vcan0 0EE#320320AA00000235
(1704734230.169924) vcan0 0EF#4E217D02B896172A
(1704734230.170166) vcan0 0F0#4E217D0296200000
(1704734230.170399) vcan0 132#FE7F3664924B5000
(1704734230.170642) vcan0 133#007F089500060000
(1704734230.171639) vcan0 0FD#A540FFFE0099A0FF
(1704734230.171745) vcan0 144#BA
(1704734230.171981) vcan0 0F5#7D035DFFD7F87140
(1704734230.172213) vcan0 177#9A40C8002D028000
(1704734230.172380) vcan0 0FB#71C07D00
(1704734230.176976) vcan0 0F6#FF640030000FFC00
(1704734230.177215) vcan0 10D#AD3007FC0000
(1704734230.177468) vcan0 0F8#FFFE711FC069BFFF
(1704734230.178097) vcan0 148#6F0131000480
(1704734230.179512) vcan0 0EE#320320AA00000328
(1704734230.179741) vcan0 0EF#4E217D032596172A
(1704734230.179984) vcan0 0F0#4E217D030B200000
(1704734230.180214) vcan0 132#FE7F366493C45000
(1704734230.180460) vcan0 133#007F0C2000060000
(1704734230.181479) vcan0 0FD#1C50FFFE0099A0FF
(1704734230.181592) vcan0 144#BA
(1704734230.181822) vcan0 177#2350C8002D028000
(1704734230.182061) vcan0 0F5#7D04A4FFD7F87118
(1704734230.182286) vcan0 0FB#71C07D00
(1704734230.186985) vcan0 0F6#FF640030000FFC00
(1704734230.187214) vcan0 10D#A54007FC0000
(1704734230.187459) vcan0 0F8#FFFE712FC071BFFF
(1704734230.188093) vcan0 148#6F0131000480
(1704734230.189524) vcan0 0EE#320320AA0000047B
(1704734230.189744) vcan0 0EF#4E217D04D196172A
(1704734230.189994) vcan0 0F0#4E217D04FF200000
(1704734230.190223) vcan0 132#FE7F3664944E5000
(1704734230.190471) vcan0 133#007F100C00060000
(1704734230.191421) vcan0 0FD#CA60FFFE0099A0FF
(1704734230.191527) vcan0 144#BA
(1704734230.191763) vcan0 177#F560C8002D028000
(1704734230.191994) vcan0 0F5#7D058DFFD7F87130
(1704734230.192180) vcan0 0FB#71C07D00
(1704734230.196977) vcan0 0F6#FF640030000FFC00
(1704734230.197210) vcan0 10D#1C5007FC0000
(1704734230.197455) vcan0 0F8#FFFE712FC06DBFFF
(1704734230.198087) vcan0 148#6F0131000480
(1704734230.199420) vcan0 0EE#320320AA00000566
(1704734230.199648) vcan0 0EF#4E217D054C96172A
(1704734230.199895) vcan0 0F0#4E217D0562200000
(1704734230.200135) vcan0 132#FE7F366495C15000
(1704734230.200376) vcan0 133#007F14B900060000
(1704734230.201324) vcan0 0FD#7370FFFE0099A0FF
(1704734230.201424) vcan0 144#BA
(1704734230.201661) vcan0 177#4C70C8002D028000
(1704734230.201965) vcan0 0F5#7D068AFFD7F87120
(1704734230.202183) vcan0 0FB#71C07D00
(1704734230.206982) vcan0 0F6#FF640030000FFC00
(1704734230.207224) vcan0 10D#CA6007FC0000
(1704734230.207469) vcan0 0F8#FFFE716FC07DBFFF
(1704734230.208083) vcan0 148#6F0131000480
(1704734230.209617) vcan0 0EE#320320AA00000641
(1704734230.209843) vcan0 0EF#4E217D06F696172A
(1704734230.210089) vcan0 0F0#4E217D06D8200000
(1704734230.210325) vcan0 132#FE7F3664964D5000
(1704734230.210566) vcan0 133#007F187B00060000
(1704734230.211529) vcan0 0FD#DA80FFFE0099A0FF
(1704734230.211632) vcan0 144#BA
(1704734230.211879) vcan0 177#E580C8002D028000
(1704734230.212107) vcan0 0F5#7D07E9FFD7F87138
(1704734230.212287) vcan0 0FB#71C07D00
(1704734230.216975) vcan0 0F6#FF640030000FFC00
(1704734230.217216) vcan0 10D#737007FC0000
(1704734230.217458) vcan0 0F8#FFFE716FC065BFFF
(1704734230.218080) vcan0 148#6F0131000480
(1704734230.219526) vcan0 0EE#320320AA0000075C
(1704734230.219752) vcan0 0EF#4E217D076B96172A
(1704734230.219995) vcan0 0F0#4E217D0745200000
(1704734230.220233) vcan0 132#FE7F366497C25000
(1704734230.220477) vcan0 133#007F1CCE00060000
(1704734230.221463) vcan0 0FD#6390FFFE0099A0FF
(1704734230.221566) vcan0 144#BA
(1704734230.221805) vcan0 177#5C90C8002D028000
(1704734230.222043) vcan0 0F5#7D089DFFD7F87140
(1704734230.222205) vcan0 0FB#71C07D00
(1704734230.226980) vcan0 0F6#FF640030000FFC00
(1704734230.227255) vcan0 37E#415000C003CF80FF
(1704734230.227502) vcan0 0F8#FFFE718FC071BFFF
(1704734230.227705) vcan0 10D#DA8007FC0000
(1704734230.228115) vcan0 38E#2192FFC010200000
(1704734230.228360) vcan0 029#C54A880300F3
(1704734230.228569) vcan0 148#6F0130000480
(1704734230.229733) vcan0 0EE#320320AA000008E7
(1704734230.229954) vcan0 0EF#4E217D080396172A
(1704734230.230195) vcan0 0F0#4E217D082D200000
(1704734230.230436) vcan0 132#FE7F366498445000
(1704734230.230679) vcan0 133#007F202300060000
(1704734230.231329) vcan0 36C#40AA49E900080A31
(1704734230.231725) vcan0 0FD#B5A0FFFE0099A0FF
(1704734230.231957) vcan0 0F5#7D096AFFD7F87138
(1704734230.232067) vcan0 144#BA
(1704734230.232236) vcan0 0FB#71C07D00
(1704734230.232474) vcan0 177#8AA0C8002D028000
(1704734230.236975) vcan0 0F6#FF640030000FFC00
(1704734230.237211) vcan0 10D#639007FC0000
(1704734230.237457) vcan0 0F8#FFFE717FC069BFFF
(1704734230.238074) vcan0 148#6F0130000480
(1704734230.239420) vcan0 0EE#320320AA000009FA
(1704734230.239643) vcan0 0EF#4E217D099E96172A
(1704734230.239890) vcan0 0F0#4E217D09B0200000
(1704734230.240124) vcan0 132#FE7F366499CB5000
(1704734230.240365) vcan0 133#007F249600060000
(1704734230.241384) vcan0 0FD#0CB0FFFE0099A0FF
(1704734230.241484) vcan0 144#BA
(1704734230.241727) vcan0 177#33B0C8002D028000
(1704734230.241960) vcan0 0F5#7D0A48FFD7F87130
(1704734230.242200) vcan0 373#C1805DB20000FFCB
(1704734230.242362) vcan0 0FB#71C07D00
(1704734230.242599) vcan0 381#55FFFFD7055C487D
(1704734230.242841) vcan0 383#4412FFCF00200000
(1704734230.246975) vcan0 0F6#FF640030000FFC00
(1704734230.247217) vcan0 10D#B5A007FC0000
(1704734230.247469) vcan0 0F8#FFFE717FC089BFFF
(1704734230.248075) vcan0 148#6F0130000480
(1704734230.249688) vcan0 0EE#320320AA00000ADD
(1704734230.249911) vcan0 0EF#4E217D0AA396170A
(1704734230.250156) vcan0 0F0#4E217D0A0A200000
(1704734230.250387) vcan0 132#FE7F36649A475000
(1704734230.250632) vcan0 133#007F285400060000
(1704734230.251626) vcan0 0FD#04C0FFFE0099A0FF
(1704734230.251729) vcan0 144#BA
(1704734230.251963) vcan0 0F5#7D0B0EFFD7F87130
(1704734230.252203) vcan0 177#3BC0C8002D028000
(1704734230.252365) vcan0 0FB#71C07D00
(1704734230.252597) vcan0 382#622C7F1663140063
(1704734230.254437) vcan0 375#022900BFF264FFFF
(1704734230.254660) vcan0 376#12DB9903F93F4254
(1704734230.254901) vcan0 440#003113901FFEFF95
(1704734230.255146) vcan0 4CE#5FFFFFFFDFFFE949
(1704734230.256972) vcan0 0F6#FF640030000FFC00
(1704734230.257216) vcan0 10D#0CB007FC0000
(1704734230.257474) vcan0 0F8#FFFE717FC06DBFFF
(1704734230.257860) vcan0 4FB#8B00040000A3
(1704734230.258062) vcan0 148#6F0130000480
(1704734230.259546) vcan0 0EE#320320AA00000BC0
(1704734230.259771) vcan0 0EF#4E217D0BB996172A
(1704734230.260020) vcan0 0F0#4E217D0B97200000
(1704734230.260245) vcan0 132#FE7F36649BC85000
(1704734230.260490) vcan0 133#007F2CE100060000
(1704734230.261466) vcan0 0FD#BDD0FFFE0099A0FF
(1704734230.261569) vcan0 144#BA
(1704734230.261809) vcan0 177#82D0C8002D028000
(1704734230.262043) vcan0 0F5#7D0CC1FFD7F87130
(1704734230.262209) vcan0 0FB#71E87D00
(1704734230.262453) vcan0 3EF#0BA0DC15B00F60
(1704734230.262633) vcan0 4DB#AE1ACE
(1704734230.266980) vcan0 0F6#FF640030000FFC00
(1704734230.267218) vcan0 10D#04C007FC0000
(1704734230.267449) vcan0 466#1455952DBB647E68
(1704734230.267692) vcan0 0F8#FFFE712FC071BFFF
(1704734230.268065) vcan0 148#6F0130000480
(1704734230.269566) vcan0 0EE#320320AA00000C93
(1704734230.269792) vcan0 0EF#4E217D0C4D96172A
(1704734230.270032) vcan0 0F0#4E217D0C63200000
(1704734230.270262) vcan0 132#FE7F36649C425000
(1704734230.270505) vcan0 133#007F30CD00060000
(1704734230.271513) vcan0 0FD#6BE0FFFE0099A0FF
(1704734230.271617) vcan0 144#BA
(1704734230.271860) vcan0 177#54E0C8002D028000
(1704734230.272090) vcan0 0F5#7D0D36FFD7F87148
(1704734230.272288) vcan0 0FB#71E87D00
(1704734230.276975) vcan0 0F6#FF640030000FFC00
(1704734230.277215) vcan0 10D#BDD007FC0000
(1704734230.277490) vcan0 0F8#FFFE712FC065BFFF
(1704734230.278060) vcan0 148#6F0130000480
(1704734230.279434) vcan0 0EE#320320AA00000D8E
(1704734230.279660) vcan0 0EF#4E217D0DD096172A
(1704734230.279900) vcan0 0F0#4E217D0DFE200000
(1704734230.280135) vcan0 132#FE7F36649DCD5000
(1704734230.280380) vcan0 133#007F347800060000
(1704734230.281378) vcan0 0FD#D2F0FFFE0099A0FF
(1704734230.281481) vcan0 144#BA
(1704734230.281725) vcan0 177#EDF0C8002D028000
(1704734230.281960) vcan0 0F5#7D0E14FFD7F87140
(1704734230.282182) vcan0 0FB#71E87D00
(1704734230.286976) vcan0 0F6#FF640030000FFC00
(1704734230.287221) vcan0 10D#6BE007FC0000
(1704734230.287499) vcan0 0F8#FFFE712FC085BFFF
(1704734230.288056) vcan0 148#6F012F000480
(1704734230.289664) vcan0 0EE#320320AA00000EA9
(1704734230.289880) vcan0 0EF#4E217D0E6A96172A
(1704734230.290120) vcan0 0F0#4E217D0E44200000
(1704734230.290360) vcan0 132#FE7F36649E415000
(1704734230.290603) vcan0 133#007F38BA00060000
(1704734230.291576) vcan0 0FD#7B00FFFE0099A0FF
(1704734230.291680) vcan0 144#BA
(1704734230.291924) vcan0 177#4400C8002D028000
(1704734230.292156) vcan0 0F5#7D0F0BFFD7F87130
(1704734230.292378) vcan0 0FB#71E87D00
(1704734230.296976) vcan0 0F6#FF640030000FFC00
(1704734230.297218) vcan0 10D#D2F007FC0000
(1704734230.297487) vcan0 0F8#FFFE712FC06DBFFF
(1704734230.298050) vcan0 148#6F012F000480
(1704734230.299559) vcan0 0EE#320320AA00000FB4
(1704734230.299783) vcan0 0EF#4E217D0FF796172A
(1704734230.300029) vcan0 0F0#4E217D0FD9200000
(1704734230.300264) vcan0 132#FE7F36649FCE5000
(1704734230.300512) vcan0 133#007F3C0F00060000
(1704734230.301473) vcan0 0FD#C210FFFE0099A0FF
(1704734230.301576) vcan0 144#BA
(1704734230.301816) vcan0 177#FD10C8002D028000
(1704734230.302048) vcan0 0F5#7D00CEFFD7F87130
(1704734230.302217) vcan0 0FB#71E87D00
(1704734230.306978) vcan0 0F6#FF640030000FFC00
(1704734230.307215) vcan0 10D#7B0007FC0000
(1704734230.307498) vcan0 0F8#FFFE7147C075BFFF
(1704734230.308042) vcan0 148#6F012F000480
(1704734230.309548) vcan0 0EE#320320AA0000000F
(1704734230.309773) vcan0 0EF#4E217D009F96172A
(1704734230.310019) vcan0 0F0#4E217D00B1200000
(1704734230.310256) vcan0 132#FE7F366490485000
(1704734230.310502) vcan0 133#007F00E200060000
(1704734230.311442) vcan0 0FD#1420FFFE0099A0FF
(1704734230.311545) vcan0 144#BA
(1704734230.311784) vcan0 177#2B20C8002D028000
(1704734230.312020) vcan0 0F5#7D0188FFD7F87130
(1704734230.312190) vcan0 0FB#71E87D00
(1704734230.316978) vcan0 0F6#FF640030000FFC00
(1704734230.317219) vcan0 10D#C21007FC0000
(1704734230.317499) vcan0 0F8#FFFE7147C069BFFF
(1704734230.318045) vcan0 148#6F012F000480
(1704734230.319414) vcan0 0EE#320320AA00000112
(1704734230.319647) vcan0 0EF#4E217D010296172A
(1704734230.319884) vcan0 0F0#4E217D012C200000
(1704734230.320123) vcan0 132#FE7F366491C75000
(1704734230.320368) vcan0 133#007F045700060000
(1704734230.321384) vcan0 0FD#AD30FFFE0099A0FF
(1704734230.321486) vcan0 144#BA
(1704734230.321726) vcan0 177#9230C8002D028000
(1704734230.321963) vcan0 0F5#7D0242FFD7F87130
(1704734230.322186) vcan0 0FB#71E87D00
(1704734230.326977) vcan0 0F6#FF640030000FFC00
(1704734230.327257) vcan0 37E#415000C003CF80FF
(1704734230.327503) vcan0 0F8#FFFE7177C07DBFFF
(1704734230.327708) vcan0 10D#142007FC0000
(1704734230.328079) vcan0 38E#2192FFC010200000
(1704734230.328321) vcan0 029#C54A896900F3
(1704734230.328530) vcan0 148#6F012F000480
(1704734230.329890) vcan0 0EE#320320AA00000235
(1704734230.330114) vcan0 0EF#4E217D02B896172A
(1704734230.330361) vcan0 0F0#4E217D0296200000
(1704734230.330601) vcan0 132#FE7F3664924B5000
(1704734230.330835) vcan0 133#007F089500060000
(1704734230.331354) vcan0 36C#40AA49E900080B2C
(1704734230.331883) vcan0 0FD#A540FFFE0099A0FF
(1704734230.332110) vcan0 0F5#7D03B5FFD7F87148
(1704734230.332221) vcan0 144#BA
(1704734230.332392) vcan0 0FB#71E87D00
(1704734230.332631) vcan0 177#9A40C8002D028000
(1704734230.336973) vcan0 0F6#FF640030000FFC00
(1704734230.337214) vcan0 10D#AD3007FC0000
(1704734230.337510) vcan0 0F8#FFFE717FC069BFFF
(1704734230.338036) vcan0 148#6F012F000480
(1704734230.339526) vcan0 0EE#320320AA00000328
(1704734230.339760) vcan0 0EF#4E217D032596172A
(1704734230.340008) vcan0 0F0#4E217D030B200000
(1704734230.340244) vcan0 132#FE7F366493C45000
(1704734230.340488) vcan0 133#007F0C2000060000
(1704734230.341592) vcan0 0FD#1C50FFFE0099A0FF
(1704734230.341693) vcan0 144#BA
(1704734230.341937) vcan0 177#2350C8002D028000
(1704734230.342170) vcan0 0F5#7D0423FFD7F87138
(1704734230.342408) vcan0 373#C1805DB20000FFCB
(1704734230.342579) vcan0 0FB#71E87D00
(1704734230.342817) vcan0 381#55FFFFD7055C487D
(1704734230.343049) vcan0 383#4412FFCF00200000
(1704734230.346978) vcan0 0F6#FF640030000FFC00
(1704734230.347214) vcan0 10D#A54007FC0000
(1704734230.347513) vcan0 0F8#FFFE717FC071BFFF
(1704734230.348028) vcan0 148#6F012F000480
(1704734230.349604) vcan0 0EE#320320AA0000047B
(1704734230.349829) vcan0 0EF#4E217D04D196172A
(1704734230.350081) vcan0 0F0#4E217D04FF200000
(1704734230.350318) vcan0 132#FE7F3664944E5000
(1704734230.350562) vcan0 133#007F100C00060000
(1704734230.351615) vcan0 0FD#CA60FFFE0099A0FF
(1704734230.351715) vcan0 144#BB
(1704734230.351957) vcan0 177#F560C8002D028000
(1704734230.352190) vcan0 0F5#7D058DFFD7F87130
(1704734230.352379) vcan0 0FB#71E87D00
(1704734230.352613) vcan0 382#622C7F1663140063
(1704734230.354549) vcan0 375#022900BFF264FFFF
(1704734230.354782) vcan0 376#12DB9903F93F4254
(1704734230.355025) vcan0 440#00313CA01FFEFF95
(1704734230.355274) vcan0 4CE#5FFFFFFFDFFFEA6E
(1704734230.356970) vcan0 0F6#FF640030000FFC00
(1704734230.357212) vcan0 10D#1C5007FC0000
(1704734230.357521) vcan0 0F8#FFFE717FC06DBFFF
(1704734230.358028) vcan0 148#6F012F000480
(1704734230.358227) vcan0 4FB#8C000400002D
(1704734230.359439) vcan0 0EE#320320AA00000566
(1704734230.359669) vcan0 0EF#4E217D054C96172A
(1704734230.359918) vcan0 0F0#4E217D0562200000
(1704734230.360155) vcan0 132#FE7F366495C15000
(1704734230.360399) vcan0 133#007F14B900060000
(1704734230.361473) vcan0 0FD#7370FFFE0099A0FF
(1704734230.361573) vcan0 144#BB
(1704734230.361814) vcan0 177#4C70C8002D028000
(1704734230.362047) vcan0 0F5#7D0647FFD7F87130
(1704734230.362213) vcan0 0FB#71987D00
(1704734230.362512) vcan0 3EF#B2B0DC15B00F60
(1704734230.362695) vcan0 4DB#AE1ACF
(1704734230.366979) vcan0 0F6#FF640030000FFC00
(1704734230.367219) vcan0 10D#CA6007FC0000
(1704734230.367460) vcan0 466#14945FE627716200
(1704734230.367700) vcan0 0F8#FFFE7147C071BFFF
(1704734230.368020) vcan0 148#6F012F000480
(1704734230.369700) vcan0 0EE#320320AA00000641
(1704734230.369931) vcan0 0EF#4E217D067997172A
(1704734230.370176) vcan0 0F0#4E217D06D8200000
(1704734230.370411) vcan0 132#FE7F3664964D5000
(1704734230.370656) vcan0 133#007F187B00060000
(1704734230.371746) vcan0 0FD#DA80FFFE0099A0FF
(1704734230.371977) vcan0 0F5#7D07CCFFD7F87120
(1704734230.372092) vcan0 144#BB
(1704734230.372257) vcan0 0FB#71987D00
(1704734230.372497) vcan0 177#E580C8002D028000
(1704734230.376975) vcan0 0F6#FF640030000FFC00
(1704734230.377210) vcan0 10D#737007FC0000
(1704734230.377529) vcan0 0F8#FFFE7147C07DBFFF
(1704734230.378019) vcan0 148#6F012F000480
(1704734230.379572) vcan0 0EE#320320AA0000075C
(1704734230.379802) vcan0 0EF#4E217D07E497172A
(1704734230.380047) vcan0 0F0#4E217D0745200000
(1704734230.380289) vcan0 132#FE7F366497C25000
(1704734230.380529) vcan0 133#007F1CCE00060000
(1704734230.381641) vcan0 0FD#6390FFFE0099A0FF
(1704734230.381744) vcan0 144#BB
(1704734230.381980) vcan0 0F5#7D08C4FFD7F87130
(1704734230.382217) vcan0 177#5C90C8002D028000
(1704734230.382381) vcan0 0FB#71987D00
(1704734230.386974) vcan0 0F6#FF640030000FFC00
(1704734230.387217) vcan0 10D#DA8007FC0000
(1704734230.387537) vcan0 0F8#FFFE712FC071BFFF
(1704734230.388015) vcan0 148#6F012F000480
(1704734230.389558) vcan0 0EE#320320AA000008E7
(1704734230.389787) vcan0 0EF#4E217D088C97172A
(1704734230.390035) vcan0 0F0#4E217D082D200000
(1704734230.390265) vcan0 132#FE7F366498445000
(1704734230.390511) vcan0 133#007F202300060000
(1704734230.391580) vcan0 0FD#B5A0FFFE0099A0FF
(1704734230.391679) vcan0 144#BB
(1704734230.391921) vcan0 177#8AA0C8002D028000
(1704734230.392155) vcan0 0F5#7D09DBFFD7F87140
(1704734230.392376) vcan0 0FB#71987D00
